! S parameter file generated by ana
#   GHz   S   DB   R  50
! frequency       S11_dB    S11_deg       S21_dB    S21_deg       S12_dB    S12_deg       S22_dB    S22_deg
 1.50000000e-02    -57.79154   -1.74367     -0.00001   -0.06113     -0.00001   -0.06113    -57.79154 -178.37858
 3.00000000e-02    -57.78032   -3.48444     -0.00001   -0.12225     -0.00001   -0.12225    -57.78032 -176.76007
 4.50000000e-02    -57.76168   -5.21944     -0.00001   -0.18338     -0.00001   -0.18338    -57.76168 -175.14732
 6.00000000e-02    -57.73573   -6.94585     -0.00001   -0.24451     -0.00001   -0.24451    -57.73573 -173.54316
 7.50000000e-02    -57.70258   -8.66095     -0.00001   -0.30563     -0.00001   -0.30563    -57.70258 -171.95032
 9.00000000e-02    -57.66241  -10.36213     -0.00001   -0.36676     -0.00001   -0.36676    -57.66241 -170.37140
 1.05000000e-01    -57.61541  -12.04690     -0.00001   -0.42789     -0.00001   -0.42789    -57.61541 -168.80888
 1.20000000e-01    -57.56181  -13.71294     -0.00001   -0.48902     -0.00001   -0.48902    -57.56181 -167.26509
 1.35000000e-01    -57.50185  -15.35811     -0.00001   -0.55014     -0.00001   -0.55014    -57.50185 -165.74218
 1.50000000e-01    -57.43580  -16.98042     -0.00001   -0.61127     -0.00001   -0.61127    -57.43580 -164.24212
 1.65000000e-01    -57.36396  -18.57810     -0.00001   -0.67240     -0.00001   -0.67240    -57.36396 -162.76669
 1.80000000e-01    -57.28661  -20.14957     -0.00001   -0.73352     -0.00001   -0.73352    -57.28661 -161.31748
 1.95000000e-01    -57.20407  -21.69344     -0.00001   -0.79465     -0.00001   -0.79465    -57.20407 -159.89586
 2.10000000e-01    -57.11666  -23.20854     -0.00001   -0.85578     -0.00001   -0.85578    -57.11666 -158.50302
 2.25000000e-01    -57.02470  -24.69387     -0.00001   -0.91691     -0.00001   -0.91691    -57.02470 -157.13994
 2.40000000e-01    -56.92851  -26.14862     -0.00001   -0.97803     -0.00001   -0.97803    -56.92851 -155.80745
 2.55000000e-01    -56.82840  -27.57217     -0.00001   -1.03916     -0.00001   -1.03916    -56.82840 -154.50615
 2.70000000e-01    -56.72470  -28.96407     -0.00001   -1.10029     -0.00001   -1.10029    -56.72470 -153.23650
 2.85000000e-01    -56.61770  -30.32402     -0.00001   -1.16142     -0.00001   -1.16142    -56.61770 -151.99881
 3.00000000e-01    -56.50771  -31.65186     -0.00001   -1.22254     -0.00001   -1.22254    -56.50771 -150.79323
 3.15000000e-01    -56.39501  -32.94757     -0.00001   -1.28367     -0.00001   -1.28367    -56.39501 -149.61977
 3.30000000e-01    -56.27988  -34.21126     -0.00001   -1.34480     -0.00001   -1.34480    -56.27988 -148.47834
 3.45000000e-01    -56.16258  -35.44313     -0.00001   -1.40593     -0.00001   -1.40593    -56.16258 -147.36872
 3.60000000e-01    -56.04337  -36.64350     -0.00001   -1.46705     -0.00001   -1.46705    -56.04337 -146.29061
 3.75000000e-01    -55.92249  -37.81273     -0.00001   -1.52818     -0.00001   -1.52818    -55.92249 -145.24364
 3.90000000e-01    -55.80015  -38.95130     -0.00001   -1.58931     -0.00001   -1.58931    -55.80015 -144.22732
 4.05000000e-01    -55.67657  -40.05973     -0.00001   -1.65044     -0.00001   -1.65044    -55.67657 -143.24115
 4.20000000e-01    -55.55195  -41.13859     -0.00001   -1.71157     -0.00001   -1.71157    -55.55195 -142.28455
 4.35000000e-01    -55.42648  -42.18849     -0.00001   -1.77270     -0.00001   -1.77270    -55.42648 -141.35690
 4.50000000e-01    -55.30032  -43.21010     -0.00001   -1.83383     -0.00001   -1.83383    -55.30032 -140.45756
 4.65000000e-01    -55.17364  -44.20408     -0.00001   -1.89496     -0.00001   -1.89496    -55.17364 -139.58583
 4.80000000e-01    -55.04659  -45.17114     -0.00001   -1.95608     -0.00001   -1.95608    -55.04659 -138.74103
 4.95000000e-01    -54.91929  -46.11198     -0.00001   -2.01721     -0.00001   -2.01721    -54.91929 -137.92244
 5.10000000e-01    -54.79188  -47.02734     -0.00001   -2.07834     -0.00001   -2.07834    -54.79188 -137.12934
 5.25000000e-01    -54.66448  -47.91794     -0.00001   -2.13947     -0.00001   -2.13947    -54.66448 -136.36101
 5.40000000e-01    -54.53718  -48.78450     -0.00002   -2.20060     -0.00002   -2.20060    -54.53718 -135.61671
 5.55000000e-01    -54.41009  -49.62774     -0.00002   -2.26173     -0.00002   -2.26173    -54.41009 -134.89572
 5.70000000e-01    -54.28329  -50.44839     -0.00002   -2.32286     -0.00002   -2.32286    -54.28329 -134.19734
 5.85000000e-01    -54.15686  -51.24715     -0.00002   -2.38399     -0.00002   -2.38399    -54.15686 -133.52084
 6.00000000e-01    -54.03088  -52.02472     -0.00002   -2.44512     -0.00002   -2.44512    -54.03088 -132.86553
 6.15000000e-01    -53.90541  -52.78177     -0.00002   -2.50625     -0.00002   -2.50625    -53.90541 -132.23073
 6.30000000e-01    -53.78051  -53.51899     -0.00002   -2.56739     -0.00002   -2.56739    -53.78051 -131.61578
 6.45000000e-01    -53.65623  -54.23703     -0.00002   -2.62852     -0.00002   -2.62852    -53.65623 -131.02000
 6.60000000e-01    -53.53263  -54.93652     -0.00002   -2.68965     -0.00002   -2.68965    -53.53263 -130.44278
 6.75000000e-01    -53.40973  -55.61808     -0.00002   -2.75078     -0.00002   -2.75078    -53.40973 -129.88348
 6.90000000e-01    -53.28758  -56.28232     -0.00002   -2.81191     -0.00002   -2.81191    -53.28758 -129.34150
 7.05000000e-01    -53.16622  -56.92983     -0.00002   -2.87304     -0.00002   -2.87304    -53.16622 -128.81626
 7.20000000e-01    -53.04567  -57.56116     -0.00002   -2.93417     -0.00002   -2.93417    -53.04567 -128.30718
 7.35000000e-01    -52.92595  -58.17688     -0.00002   -2.99531     -0.00002   -2.99531    -52.92595 -127.81373
 7.50000000e-01    -52.80709  -58.77751     -0.00002   -3.05644     -0.00002   -3.05644    -52.80709 -127.33537
 7.65000000e-01    -52.68911  -59.36357     -0.00002   -3.11757     -0.00002   -3.11757    -52.68911 -126.87157
 7.80000000e-01    -52.57203  -59.93555     -0.00002   -3.17871     -0.00002   -3.17871    -52.57203 -126.42186
 7.95000000e-01    -52.45585  -60.49394     -0.00002   -3.23984     -0.00002   -3.23984    -52.45585 -125.98574
 8.10000000e-01    -52.34059  -61.03919     -0.00003   -3.30097     -0.00003   -3.30097    -52.34059 -125.56276
 8.25000000e-01    -52.22625  -61.57175     -0.00003   -3.36211     -0.00003   -3.36211    -52.22625 -125.15246
 8.40000000e-01    -52.11285  -62.09206     -0.00003   -3.42324     -0.00003   -3.42324    -52.11285 -124.75442
 8.55000000e-01    -52.00038  -62.60052     -0.00003   -3.48437     -0.00003   -3.48437    -52.00038 -124.36823
 8.70000000e-01    -51.88886  -63.09753     -0.00003   -3.54551     -0.00003   -3.54551    -51.88886 -123.99349
 8.85000000e-01    -51.77828  -63.58348     -0.00003   -3.60664     -0.00003   -3.60664    -51.77828 -123.62981
 9.00000000e-01    -51.66864  -64.05874     -0.00003   -3.66778     -0.00003   -3.66778    -51.66864 -123.27681
 9.15000000e-01    -51.55995  -64.52367     -0.00003   -3.72891     -0.00003   -3.72891    -51.55995 -122.93416
 9.30000000e-01    -51.45220  -64.97860     -0.00003   -3.79005     -0.00003   -3.79005    -51.45220 -122.60150
 9.45000000e-01    -51.34538  -65.42387     -0.00003   -3.85119     -0.00003   -3.85119    -51.34538 -122.27850
 9.60000000e-01    -51.23951  -65.85979     -0.00003   -3.91232     -0.00003   -3.91232    -51.23951 -121.96486
 9.75000000e-01    -51.13456  -66.28667     -0.00003   -3.97346     -0.00003   -3.97346    -51.13456 -121.66025
 9.90000000e-01    -51.03054  -66.70480     -0.00003   -4.03460     -0.00003   -4.03460    -51.03054 -121.36439
 1.00500000e+00    -50.92744  -67.11447     -0.00004   -4.09573     -0.00004   -4.09573    -50.92744 -121.07700
 1.02000000e+00    -50.82525  -67.51594     -0.00004   -4.15687     -0.00004   -4.15687    -50.82525 -120.79780
 1.03500000e+00    -50.72397  -67.90948     -0.00004   -4.21801     -0.00004   -4.21801    -50.72397 -120.52654
 1.05000000e+00    -50.62359  -68.29534     -0.00004   -4.27915     -0.00004   -4.27915    -50.62359 -120.26295
 1.06500000e+00    -50.52410  -68.67377     -0.00004   -4.34029     -0.00004   -4.34029    -50.52410 -120.00681
 1.08000000e+00    -50.42549  -69.04498     -0.00004   -4.40142     -0.00004   -4.40142    -50.42549 -119.75787
 1.09500000e+00    -50.32776  -69.40922     -0.00004   -4.46256     -0.00004   -4.46256    -50.32776 -119.51591
 1.11000000e+00    -50.23090  -69.76669     -0.00004   -4.52370     -0.00004   -4.52370    -50.23090 -119.28071
 1.12500000e+00    -50.13490  -70.11761     -0.00004   -4.58484     -0.00004   -4.58484    -50.13490 -119.05208
 1.14000000e+00    -50.03975  -70.46217     -0.00004   -4.64598     -0.00004   -4.64598    -50.03975 -118.82980
 1.15500000e+00    -49.94543  -70.80056     -0.00004   -4.70712     -0.00004   -4.70712    -49.94543 -118.61369
 1.17000000e+00    -49.85195  -71.13298     -0.00004   -4.76826     -0.00004   -4.76826    -49.85195 -118.40355
 1.18500000e+00    -49.75929  -71.45959     -0.00005   -4.82941     -0.00005   -4.82941    -49.75929 -118.19922
 1.20000000e+00    -49.66744  -71.78058     -0.00005   -4.89055     -0.00005   -4.89055    -49.66744 -118.00051
 1.21500000e+00    -49.57640  -72.09611     -0.00005   -4.95169     -0.00005   -4.95169    -49.57640 -117.80727
 1.23000000e+00    -49.48615  -72.40634     -0.00005   -5.01283     -0.00005   -5.01283    -49.48615 -117.61933
 1.24500000e+00    -49.39668  -72.71142     -0.00005   -5.07398     -0.00005   -5.07398    -49.39668 -117.43653
 1.26000000e+00    -49.30799  -73.01150     -0.00005   -5.13512     -0.00005   -5.13512    -49.30799 -117.25874
 1.27500000e+00    -49.22007  -73.30673     -0.00005   -5.19626     -0.00005   -5.19626    -49.22007 -117.08580
 1.29000000e+00    -49.13290  -73.59724     -0.00005   -5.25741     -0.00005   -5.25741    -49.13290 -116.91758
 1.30500000e+00    -49.04648  -73.88316     -0.00005   -5.31855     -0.00005   -5.31855    -49.04648 -116.75394
 1.32000000e+00    -48.96080  -74.16464     -0.00006   -5.37970     -0.00006   -5.37970    -48.96080 -116.59475
 1.33500000e+00    -48.87584  -74.44178     -0.00006   -5.44084     -0.00006   -5.44084    -48.87584 -116.43990
 1.35000000e+00    -48.79160  -74.71471     -0.00006   -5.50199     -0.00006   -5.50199    -48.79160 -116.28926
 1.36500000e+00    -48.70808  -74.98355     -0.00006   -5.56313     -0.00006   -5.56313    -48.70808 -116.14271
 1.38000000e+00    -48.62525  -75.24841     -0.00006   -5.62428     -0.00006   -5.62428    -48.62525 -116.00015
 1.39500000e+00    -48.54311  -75.50939     -0.00006   -5.68543     -0.00006   -5.68543    -48.54311 -115.86146
 1.41000000e+00    -48.46166  -75.76660     -0.00006   -5.74657     -0.00006   -5.74657    -48.46166 -115.72655
 1.42500000e+00    -48.38088  -76.02014     -0.00006   -5.80772     -0.00006   -5.80772    -48.38088 -115.59530
 1.44000000e+00    -48.30077  -76.27011     -0.00006   -5.86887     -0.00006   -5.86887    -48.30077 -115.46763
 1.45500000e+00    -48.22132  -76.51660     -0.00007   -5.93002     -0.00007   -5.93002    -48.22132 -115.34344
 1.47000000e+00    -48.14251  -76.75970     -0.00007   -5.99117     -0.00007   -5.99117    -48.14251 -115.22263
 1.48500000e+00    -48.06434  -76.99950     -0.00007   -6.05232     -0.00007   -6.05232    -48.06434 -115.10513
 1.50000000e+00    -47.98680  -77.23609     -0.00007   -6.11347     -0.00007   -6.11347    -47.98680 -114.99084
 1.51500000e+00    -47.90989  -77.46955     -0.00007   -6.17462     -0.00007   -6.17462    -47.90989 -114.87968
 1.53000000e+00    -47.83359  -77.69996     -0.00007   -6.23577     -0.00007   -6.23577    -47.83359 -114.77158
 1.54500000e+00    -47.75790  -77.92739     -0.00007   -6.29692     -0.00007   -6.29692    -47.75790 -114.66645
 1.56000000e+00    -47.68281  -78.15192     -0.00007   -6.35807     -0.00007   -6.35807    -47.68281 -114.56423
 1.57500000e+00    -47.60831  -78.37362     -0.00008   -6.41922     -0.00008   -6.41922    -47.60831 -114.46483
 1.59000000e+00    -47.53439  -78.59256     -0.00008   -6.48038     -0.00008   -6.48038    -47.53439 -114.36819
 1.60500000e+00    -47.46105  -78.80882     -0.00008   -6.54153     -0.00008   -6.54153    -47.46105 -114.27424
 1.62000000e+00    -47.38827  -79.02245     -0.00008   -6.60268     -0.00008   -6.60268    -47.38827 -114.18292
 1.63500000e+00    -47.31606  -79.23351     -0.00008   -6.66384     -0.00008   -6.66384    -47.31606 -114.09416
 1.65000000e+00    -47.24441  -79.44208     -0.00008   -6.72499     -0.00008   -6.72499    -47.24441 -114.00791
 1.66500000e+00    -47.17330  -79.64821     -0.00008   -6.78615     -0.00008   -6.78615    -47.17330 -113.92409
 1.68000000e+00    -47.10273  -79.85195     -0.00008   -6.84731     -0.00008   -6.84731    -47.10273 -113.84266
 1.69500000e+00    -47.03269  -80.05337     -0.00009   -6.90846     -0.00009   -6.90846    -47.03269 -113.76355
 1.71000000e+00    -46.96318  -80.25252     -0.00009   -6.96962     -0.00009   -6.96962    -46.96318 -113.68672
 1.72500000e+00    -46.89419  -80.44945     -0.00009   -7.03078     -0.00009   -7.03078    -46.89419 -113.61210
 1.74000000e+00    -46.82571  -80.64421     -0.00009   -7.09193     -0.00009   -7.09193    -46.82571 -113.53966
 1.75500000e+00    -46.75774  -80.83686     -0.00009   -7.15309     -0.00009   -7.15309    -46.75774 -113.46933
 1.77000000e+00    -46.69026  -81.02743     -0.00009   -7.21425     -0.00009   -7.21425    -46.69026 -113.40107
 1.78500000e+00    -46.62329  -81.21599     -0.00009   -7.27541     -0.00009   -7.27541    -46.62329 -113.33484
 1.80000000e+00    -46.55680  -81.40256     -0.00010   -7.33657     -0.00010   -7.33657    -46.55680 -113.27058
 1.81500000e+00    -46.49079  -81.58721     -0.00010   -7.39773     -0.00010   -7.39773    -46.49079 -113.20826
 1.83000000e+00    -46.42525  -81.76996     -0.00010   -7.45889     -0.00010   -7.45889    -46.42525 -113.14783
 1.84500000e+00    -46.36019  -81.95086     -0.00010   -7.52006     -0.00010   -7.52006    -46.36019 -113.08925
 1.86000000e+00    -46.29559  -82.12996     -0.00010   -7.58122     -0.00010   -7.58122    -46.29559 -113.03248
 1.87500000e+00    -46.23145  -82.30729     -0.00010   -7.64238     -0.00010   -7.64238    -46.23145 -112.97748
 1.89000000e+00    -46.16776  -82.48289     -0.00010   -7.70355     -0.00010   -7.70355    -46.16776 -112.92420
 1.90500000e+00    -46.10451  -82.65679     -0.00011   -7.76471     -0.00011   -7.76471    -46.10451 -112.87263
 1.92000000e+00    -46.04171  -82.82904     -0.00011   -7.82588     -0.00011   -7.82588    -46.04171 -112.82271
 1.93500000e+00    -45.97935  -82.99967     -0.00011   -7.88704     -0.00011   -7.88704    -45.97935 -112.77441
 1.95000000e+00    -45.91741  -83.16871     -0.00011   -7.94821     -0.00011   -7.94821    -45.91741 -112.72770
 1.96500000e+00    -45.85590  -83.33620     -0.00011   -8.00937     -0.00011   -8.00937    -45.85590 -112.68255
 1.98000000e+00    -45.79481  -83.50216     -0.00011   -8.07054     -0.00011   -8.07054    -45.79481 -112.63892
 1.99500000e+00    -45.73414  -83.66664     -0.00012   -8.13171     -0.00012   -8.13171    -45.73414 -112.59678
 2.01000000e+00    -45.67388  -83.82965     -0.00012   -8.19288     -0.00012   -8.19288    -45.67388 -112.55610
 2.02500000e+00    -45.61402  -83.99124     -0.00012   -8.25405     -0.00012   -8.25405    -45.61402 -112.51686
 2.04000000e+00    -45.55456  -84.15142     -0.00012   -8.31522     -0.00012   -8.31522    -45.55456 -112.47901
 2.05500000e+00    -45.49550  -84.31023     -0.00012   -8.37639     -0.00012   -8.37639    -45.49550 -112.44254
 2.07000000e+00    -45.43683  -84.46770     -0.00012   -8.43756     -0.00012   -8.43756    -45.43683 -112.40742
 2.08500000e+00    -45.37855  -84.62385     -0.00013   -8.49873     -0.00013   -8.49873    -45.37855 -112.37361
 2.10000000e+00    -45.32065  -84.77871     -0.00013   -8.55990     -0.00013   -8.55990    -45.32065 -112.34110
 2.11500000e+00    -45.26313  -84.93230     -0.00013   -8.62108     -0.00013   -8.62108    -45.26313 -112.30986
 2.13000000e+00    -45.20598  -85.08465     -0.00013   -8.68225     -0.00013   -8.68225    -45.20598 -112.27985
 2.14500000e+00    -45.14920  -85.23578     -0.00013   -8.74342     -0.00013   -8.74342    -45.14920 -112.25107
 2.16000000e+00    -45.09279  -85.38571     -0.00013   -8.80460     -0.00013   -8.80460    -45.09279 -112.22348
 2.17500000e+00    -45.03674  -85.53448     -0.00014   -8.86578     -0.00014   -8.86578    -45.03674 -112.19707
 2.19000000e+00    -44.98104  -85.68210     -0.00014   -8.92695     -0.00014   -8.92695    -44.98104 -112.17180
 2.20500000e+00    -44.92570  -85.82859     -0.00014   -8.98813     -0.00014   -8.98813    -44.92570 -112.14767
 2.22000000e+00    -44.87071  -85.97398     -0.00014   -9.04931     -0.00014   -9.04931    -44.87071 -112.12464
 2.23500000e+00    -44.81606  -86.11828     -0.00014   -9.11048     -0.00014   -9.11048    -44.81606 -112.10269
 2.25000000e+00    -44.76175  -86.26151     -0.00015   -9.17166     -0.00015   -9.17166    -44.76175 -112.08181
 2.26500000e+00    -44.70778  -86.40371     -0.00015   -9.23284     -0.00015   -9.23284    -44.70778 -112.06198
 2.28000000e+00    -44.65415  -86.54487     -0.00015   -9.29402     -0.00015   -9.29402    -44.65415 -112.04318
 2.29500000e+00    -44.60084  -86.68504     -0.00015   -9.35521     -0.00015   -9.35521    -44.60084 -112.02538
 2.31000000e+00    -44.54786  -86.82421     -0.00015   -9.41639     -0.00015   -9.41639    -44.54786 -112.00857
 2.32500000e+00    -44.49521  -86.96241     -0.00015   -9.47757     -0.00015   -9.47757    -44.49521 -111.99273
 2.34000000e+00    -44.44287  -87.09966     -0.00016   -9.53875     -0.00016   -9.53875    -44.44287 -111.97785
 2.35500000e+00    -44.39085  -87.23598     -0.00016   -9.59994     -0.00016   -9.59994    -44.39085 -111.96390
 2.37000000e+00    -44.33914  -87.37137     -0.00016   -9.66112     -0.00016   -9.66112    -44.33914 -111.95087
 2.38500000e+00    -44.28775  -87.50587     -0.00016   -9.72231     -0.00016   -9.72231    -44.28775 -111.93875
 2.40000000e+00    -44.23665  -87.63947     -0.00016   -9.78350     -0.00016   -9.78350    -44.23665 -111.92752
 2.41500000e+00    -44.18586  -87.77221     -0.00017   -9.84468     -0.00017   -9.84468    -44.18586 -111.91715
 2.43000000e+00    -44.13537  -87.90409     -0.00017   -9.90587     -0.00017   -9.90587    -44.13537 -111.90765
 2.44500000e+00    -44.08518  -88.03513     -0.00017   -9.96706     -0.00017   -9.96706    -44.08518 -111.89899
 2.46000000e+00    -44.03528  -88.16535     -0.00017  -10.02825     -0.00017  -10.02825    -44.03528 -111.89115
 2.47500000e+00    -43.98567  -88.29475     -0.00017  -10.08944     -0.00017  -10.08944    -43.98567 -111.88413
 2.49000000e+00    -43.93635  -88.42335     -0.00018  -10.15063     -0.00018  -10.15063    -43.93635 -111.87791
 2.50500000e+00    -43.88731  -88.55117     -0.00018  -10.21182     -0.00018  -10.21182    -43.88731 -111.87247
 2.52000000e+00    -43.83855  -88.67822     -0.00018  -10.27301     -0.00018  -10.27301    -43.83855 -111.86781
 2.53500000e+00    -43.79007  -88.80451     -0.00018  -10.33421     -0.00018  -10.33421    -43.79007 -111.86390
 2.55000000e+00    -43.74187  -88.93005     -0.00018  -10.39540     -0.00018  -10.39540    -43.74187 -111.86075
 2.56500000e+00    -43.69394  -89.05487     -0.00019  -10.45660     -0.00019  -10.45660    -43.69394 -111.85833
 2.58000000e+00    -43.64628  -89.17896     -0.00019  -10.51779     -0.00019  -10.51779    -43.64628 -111.85663
 2.59500000e+00    -43.59889  -89.30234     -0.00019  -10.57899     -0.00019  -10.57899    -43.59889 -111.85564
 2.61000000e+00    -43.55176  -89.42502     -0.00019  -10.64018     -0.00019  -10.64018    -43.55176 -111.85535
 2.62500000e+00    -43.50490  -89.54702     -0.00019  -10.70138     -0.00019  -10.70138    -43.50490 -111.85575
 2.64000000e+00    -43.45829  -89.66834     -0.00020  -10.76258     -0.00020  -10.76258    -43.45829 -111.85682
 2.65500000e+00    -43.41195  -89.78900     -0.00020  -10.82378     -0.00020  -10.82378    -43.41195 -111.85856
