! S parameter file generated by ana
#   GHz   S   DB   R  50
! frequency       S11_dB    S11_deg       S21_dB    S21_deg       S12_dB    S12_deg       S22_dB    S22_deg
 1.50000000e-02    -64.08047  -50.41034     -0.00000   -0.87804     -0.00000   -0.87804    -64.08047 -131.34573
 3.00000000e-02    -59.70984  -68.65114     -0.00000   -1.75607     -0.00000   -1.75607    -59.70984 -114.86101
 4.50000000e-02    -56.57838  -76.75202     -0.00001   -2.63411     -0.00001   -2.63411    -56.57838 -108.51621
 6.00000000e-02    -54.22716  -81.46106     -0.00002   -3.51215     -0.00002   -3.51215    -54.22716 -105.56325
 7.50000000e-02    -52.36143  -84.69243     -0.00003   -4.39019     -0.00003   -4.39019    -52.36143 -104.08795
 9.00000000e-02    -50.82029  -87.15738     -0.00004   -5.26824     -0.00004   -5.26824    -50.82029 -103.37910
 1.05000000e-01    -49.50991  -89.17588     -0.00005   -6.14628     -0.00005   -6.14628    -49.50991 -103.11669
 1.20000000e-01    -48.37154  -90.91218     -0.00006   -7.02433     -0.00006   -7.02433    -48.37154 -103.13648
 1.35000000e-01    -47.36617  -92.45898     -0.00008   -7.90239     -0.00008   -7.90239    -47.36617 -103.34579
 1.50000000e-01    -46.46668  -93.87248     -0.00010   -8.78044     -0.00010   -8.78044    -46.46668 -103.68841
 1.65000000e-01    -45.65345  -95.18869     -0.00012   -9.65850     -0.00012   -9.65850    -45.65345 -104.12832
 1.80000000e-01    -44.91189  -96.43175     -0.00014  -10.53657     -0.00014  -10.53657    -44.91189 -104.64139
 1.95000000e-01    -44.23083  -97.61844     -0.00016  -11.41464     -0.00016  -11.41464    -44.23083 -105.21084
 2.10000000e-01    -43.60153  -98.76077     -0.00019  -12.29272     -0.00019  -12.29272    -43.60153 -105.82467
 2.25000000e-01    -43.01706  -99.86757     -0.00022  -13.17080     -0.00022  -13.17080    -43.01706 -106.47404
 2.40000000e-01    -42.47179 -100.94547     -0.00025  -14.04889     -0.00025  -14.04889    -42.47179 -107.15232
 2.55000000e-01    -41.96113 -101.99957     -0.00028  -14.92699     -0.00028  -14.92699    -41.96113 -107.85441
 2.70000000e-01    -41.48123 -103.03382     -0.00031  -15.80510     -0.00031  -15.80510    -41.48123 -108.57638
 2.85000000e-01    -41.02891 -104.05134     -0.00034  -16.68321     -0.00034  -16.68321    -41.02891 -109.31508
 3.00000000e-01    -40.60144 -105.05465     -0.00038  -17.56134     -0.00038  -17.56134    -40.60144 -110.06802
 3.15000000e-01    -40.19650 -106.04576     -0.00042  -18.43947     -0.00042  -18.43947    -40.19650 -110.83317
 3.30000000e-01    -39.81209 -107.02635     -0.00045  -19.31761     -0.00045  -19.31761    -39.81209 -111.60887
 3.45000000e-01    -39.44647 -107.99779     -0.00049  -20.19577     -0.00049  -20.19577    -39.44647 -112.39374
 3.60000000e-01    -39.09814 -108.96122     -0.00053  -21.07393     -0.00053  -21.07393    -39.09814 -113.18664
 3.75000000e-01    -38.76577 -109.91760     -0.00058  -21.95211     -0.00058  -21.95211    -38.76577 -113.98661
 3.90000000e-01    -38.44819 -110.86775     -0.00062  -22.83030     -0.00062  -22.83030    -38.44819 -114.79284
 4.05000000e-01    -38.14436 -111.81236     -0.00067  -23.70850     -0.00067  -23.70850    -38.14436 -115.60463
 4.20000000e-01    -37.85335 -112.75203     -0.00071  -24.58671     -0.00071  -24.58671    -37.85335 -116.42139
 4.35000000e-01    -37.57433 -113.68728     -0.00076  -25.46494     -0.00076  -25.46494    -37.57433 -117.24260
 4.50000000e-01    -37.30657 -114.61854     -0.00081  -26.34319     -0.00081  -26.34319    -37.30657 -118.06783
 4.65000000e-01    -37.04940 -115.54621     -0.00086  -27.22144     -0.00086  -27.22144    -37.04940 -118.89668
 4.80000000e-01    -36.80221 -116.47063     -0.00091  -28.09972     -0.00091  -28.09972    -36.80221 -119.72881
 4.95000000e-01    -36.56446 -117.39209     -0.00096  -28.97801     -0.00096  -28.97801    -36.56446 -120.56393
 5.10000000e-01    -36.33563 -118.31086     -0.00101  -29.85632     -0.00101  -29.85632    -36.33563 -121.40178
 5.25000000e-01    -36.11529 -119.22718     -0.00106  -30.73465     -0.00106  -30.73465    -36.11529 -122.24212
 5.40000000e-01    -35.90302 -120.14124     -0.00112  -31.61300     -0.00112  -31.61300    -35.90302 -123.08475
 5.55000000e-01    -35.69843 -121.05325     -0.00117  -32.49136     -0.00117  -32.49136    -35.69843 -123.92948
 5.70000000e-01    -35.50118 -121.96335     -0.00122  -33.36975     -0.00122  -33.36975    -35.50118 -124.77615
 5.85000000e-01    -35.31095 -122.87171     -0.00128  -34.24816     -0.00128  -34.24816    -35.31095 -125.62460
 6.00000000e-01    -35.12743 -123.77846     -0.00133  -35.12659     -0.00133  -35.12659    -35.12743 -126.47471
 6.15000000e-01    -34.95037 -124.68372     -0.00139  -36.00504     -0.00139  -36.00504    -34.95037 -127.32636
 6.30000000e-01    -34.77950 -125.58760     -0.00145  -36.88352     -0.00145  -36.88352    -34.77950 -128.17944
 6.45000000e-01    -34.61459 -126.49020     -0.00150  -37.76202     -0.00150  -37.76202    -34.61459 -129.03384
 6.60000000e-01    -34.45542 -127.39160     -0.00156  -38.64054     -0.00156  -38.64054    -34.45542 -129.88949
 6.75000000e-01    -34.30180 -128.29191     -0.00161  -39.51910     -0.00161  -39.51910    -34.30180 -130.74629
 6.90000000e-01    -34.15354 -129.19118     -0.00167  -40.39768     -0.00167  -40.39768    -34.15354 -131.60417
 7.05000000e-01    -34.01046 -130.08950     -0.00173  -41.27628     -0.00173  -41.27628    -34.01046 -132.46307
 7.20000000e-01    -33.87240 -130.98691     -0.00178  -42.15492     -0.00178  -42.15492    -33.87240 -133.32292
 7.35000000e-01    -33.73922 -131.88350     -0.00184  -43.03359     -0.00184  -43.03359    -33.73922 -134.18367
 7.50000000e-01    -33.61076 -132.77930     -0.00189  -43.91228     -0.00189  -43.91228    -33.61076 -135.04527
 7.65000000e-01    -33.48690 -133.67437     -0.00195  -44.79101     -0.00195  -44.79101    -33.48690 -135.90765
 7.80000000e-01    -33.36752 -134.56875     -0.00200  -45.66977     -0.00200  -45.66977    -33.36752 -136.77079
 7.95000000e-01    -33.25251 -135.46249     -0.00205  -46.54857     -0.00205  -46.54857    -33.25251 -137.63464
 8.10000000e-01    -33.14175 -136.35563     -0.00211  -47.42739     -0.00211  -47.42739    -33.14175 -138.49916
 8.25000000e-01    -33.03515 -137.24821     -0.00216  -48.30626     -0.00216  -48.30626    -33.03515 -139.36431
 8.40000000e-01    -32.93261 -138.14026     -0.00221  -49.18516     -0.00221  -49.18516    -32.93261 -140.23006
 8.55000000e-01    -32.83405 -139.03181     -0.00226  -50.06410     -0.00226  -50.06410    -32.83405 -141.09639
 8.70000000e-01    -32.73939 -139.92290     -0.00231  -50.94308     -0.00231  -50.94308    -32.73939 -141.96326
 8.85000000e-01    -32.64855 -140.81355     -0.00236  -51.82210     -0.00236  -51.82210    -32.64855 -142.83065
 9.00000000e-01    -32.56146 -141.70379     -0.00241  -52.70116     -0.00241  -52.70116    -32.56146 -143.69853
 9.15000000e-01    -32.47805 -142.59364     -0.00246  -53.58026     -0.00246  -53.58026    -32.47805 -144.56688
 9.30000000e-01    -32.39828 -143.48314     -0.00250  -54.45941     -0.00250  -54.45941    -32.39828 -145.43568
 9.45000000e-01    -32.32206 -144.37229     -0.00255  -55.33860     -0.00255  -55.33860    -32.32206 -146.30491
 9.60000000e-01    -32.24937 -145.26113     -0.00259  -56.21784     -0.00259  -56.21784    -32.24937 -147.17455
 9.75000000e-01    -32.18015 -146.14967     -0.00263  -57.09712     -0.00263  -57.09712    -32.18015 -148.04457
 9.90000000e-01    -32.11435 -147.03793     -0.00267  -57.97645     -0.00267  -57.97645    -32.11435 -148.91498
 1.00500000e+00    -32.05193 -147.92594     -0.00271  -58.85584     -0.00271  -58.85584    -32.05193 -149.78574
 1.02000000e+00    -31.99286 -148.81370     -0.00275  -59.73527     -0.00275  -59.73527    -31.99286 -150.65685
 1.03500000e+00    -31.93710 -149.70123     -0.00278  -60.61476     -0.00278  -60.61476    -31.93710 -151.52828
 1.05000000e+00    -31.88463 -150.58855     -0.00281  -61.49430     -0.00281  -61.49430    -31.88463 -152.40004
 1.06500000e+00    -31.83541 -151.47568     -0.00285  -62.37389     -0.00285  -62.37389    -31.83541 -153.27210
 1.08000000e+00    -31.78942 -152.36262     -0.00288  -63.25354     -0.00288  -63.25354    -31.78942 -154.14446
 1.09500000e+00    -31.74664 -153.24940     -0.00291  -64.13325     -0.00291  -64.13325    -31.74664 -155.01709
 1.11000000e+00    -31.70706 -154.13602     -0.00293  -65.01301     -0.00293  -65.01301    -31.70706 -155.89000
 1.12500000e+00    -31.67065 -155.02250     -0.00296  -65.89284     -0.00296  -65.89284    -31.67065 -156.76318
 1.14000000e+00    -31.63741 -155.90886     -0.00298  -66.77273     -0.00298  -66.77273    -31.63741 -157.63660
 1.15500000e+00    -31.60732 -156.79509     -0.00300  -67.65268     -0.00300  -67.65268    -31.60732 -158.51027
 1.17000000e+00    -31.58038 -157.68121     -0.00302  -68.53270     -0.00302  -68.53270    -31.58038 -159.38418
 1.18500000e+00    -31.55658 -158.56725     -0.00304  -69.41278     -0.00304  -69.41278    -31.55658 -160.25831
 1.20000000e+00    -31.53593 -159.45319     -0.00305  -70.29293     -0.00305  -70.29293    -31.53593 -161.13266
 1.21500000e+00    -31.51842 -160.33906     -0.00306  -71.17314     -0.00306  -71.17314    -31.51842 -162.00722
 1.23000000e+00    -31.50407 -161.22487     -0.00307  -72.05343     -0.00307  -72.05343    -31.50407 -162.88199
 1.24500000e+00    -31.49287 -162.11063     -0.00308  -72.93379     -0.00308  -72.93379    -31.49287 -163.75696
 1.26000000e+00    -31.48483 -162.99634     -0.00309  -73.81423     -0.00309  -73.81423    -31.48483 -164.63211
 1.27500000e+00    -31.47998 -163.88201     -0.00309  -74.69473     -0.00309  -74.69473    -31.47998 -165.50746
 1.29000000e+00    -31.47832 -164.76766     -0.00309  -75.57532     -0.00309  -75.57532    -31.47832 -166.38298
 1.30500000e+00    -31.47987 -165.65329     -0.00309  -76.45598     -0.00309  -76.45598    -31.47987 -167.25867
 1.32000000e+00    -31.48466 -166.53892     -0.00309  -77.33672     -0.00309  -77.33672    -31.48466 -168.13452
 1.33500000e+00    -31.49271 -167.42454     -0.00308  -78.21754     -0.00308  -78.21754    -31.49271 -169.01054
 1.35000000e+00    -31.50405 -168.31018     -0.00307  -79.09845     -0.00307  -79.09845    -31.50405 -169.88671
 1.36500000e+00    -31.51871 -169.19584     -0.00306  -79.97943     -0.00306  -79.97943    -31.51871 -170.76303
 1.38000000e+00    -31.53672 -170.08152     -0.00305  -80.86051     -0.00305  -80.86051    -31.53672 -171.63949
 1.39500000e+00    -31.55813 -170.96725     -0.00303  -81.74167     -0.00303  -81.74167    -31.55813 -172.51609
 1.41000000e+00    -31.58297 -171.85301     -0.00302  -82.62292     -0.00302  -82.62292    -31.58297 -173.39282
 1.42500000e+00    -31.61129 -172.73884     -0.00300  -83.50426     -0.00300  -83.50426    -31.61129 -174.26968
 1.44000000e+00    -31.64314 -173.62472     -0.00298  -84.38569     -0.00298  -84.38569    -31.64314 -175.14665
 1.45500000e+00    -31.67858 -174.51068     -0.00295  -85.26721     -0.00295  -85.26721    -31.67858 -176.02374
 1.47000000e+00    -31.71766 -175.39673     -0.00293  -86.14883     -0.00293  -86.14883    -31.71766 -176.90094
 1.48500000e+00    -31.76044 -176.28286     -0.00290  -87.03055     -0.00290  -87.03055    -31.76044 -177.77824
 1.50000000e+00    -31.80700 -177.16909     -0.00287  -87.91236     -0.00287  -87.91236    -31.80700 -178.65564
 1.51500000e+00    -31.85741 -178.05543     -0.00283  -88.79428     -0.00283  -88.79428    -31.85741 -179.53312
 1.53000000e+00    -31.91174 -178.94190     -0.00280  -89.67629     -0.00280  -89.67629    -31.91174  179.58931
 1.54500000e+00    -31.97009 -179.82849     -0.00276  -90.55841     -0.00276  -90.55841    -31.97009  178.71167
 1.56000000e+00    -32.03253  179.28478     -0.00272  -91.44063     -0.00272  -91.44063    -32.03253  177.83396
 1.57500000e+00    -32.09917  178.39789     -0.00268  -92.32296     -0.00268  -92.32296    -32.09917  176.95618
 1.59000000e+00    -32.17012  177.51084     -0.00264  -93.20540     -0.00264  -93.20540    -32.17012  176.07836
 1.60500000e+00    -32.24548  176.62362     -0.00259  -94.08795     -0.00259  -94.08795    -32.24548  175.20049
 1.62000000e+00    -32.32537  175.73621     -0.00254  -94.97060     -0.00254  -94.97060    -32.32537  174.32259
 1.63500000e+00    -32.40993  174.84860     -0.00249  -95.85337     -0.00249  -95.85337    -32.40993  173.44466
 1.65000000e+00    -32.49929  173.96077     -0.00244  -96.73626     -0.00244  -96.73626    -32.49929  172.56671
 1.66500000e+00    -32.59360  173.07272     -0.00239  -97.61926     -0.00239  -97.61926    -32.59360  171.68877
 1.68000000e+00    -32.69303  172.18443     -0.00234  -98.50237     -0.00234  -98.50237    -32.69303  170.81083
 1.69500000e+00    -32.79773  171.29588     -0.00228  -99.38561     -0.00228  -99.38561    -32.79773  169.93291
 1.71000000e+00    -32.90791  170.40705     -0.00222 -100.26896     -0.00222 -100.26896    -32.90791  169.05502
 1.72500000e+00    -33.02375  169.51793     -0.00217 -101.15244     -0.00217 -101.15244    -33.02375  168.17719
 1.74000000e+00    -33.14547  168.62849     -0.00211 -102.03604     -0.00211 -102.03604    -33.14547  167.29942
 1.75500000e+00    -33.27330  167.73872     -0.00204 -102.91977     -0.00204 -102.91977    -33.27330  166.42174
 1.77000000e+00    -33.40751  166.84859     -0.00198 -103.80362     -0.00198 -103.80362    -33.40751  165.54417
 1.78500000e+00    -33.54834  165.95807     -0.00192 -104.68760     -0.00192 -104.68760    -33.54834  164.66672
 1.80000000e+00    -33.69611  165.06714     -0.00185 -105.57172     -0.00185 -105.57172    -33.69611  163.78943
 1.81500000e+00    -33.85113  164.17577     -0.00179 -106.45596     -0.00179 -106.45596    -33.85113  162.91231
 1.83000000e+00    -34.01376  163.28393     -0.00172 -107.34033     -0.00172 -107.34033    -34.01376  162.03541
 1.84500000e+00    -34.18436  162.39157     -0.00166 -108.22484     -0.00166 -108.22484    -34.18436  161.15874
 1.86000000e+00    -34.36336  161.49866     -0.00159 -109.10949     -0.00159 -109.10949    -34.36336  160.28236
 1.87500000e+00    -34.55120  160.60516     -0.00152 -109.99427     -0.00152 -109.99427    -34.55120  159.40631
 1.89000000e+00    -34.74840  159.71100     -0.00146 -110.87919     -0.00146 -110.87919    -34.74840  158.53062
 1.90500000e+00    -34.95549  158.81614     -0.00139 -111.76425     -0.00139 -111.76425    -34.95549  157.65537
 1.92000000e+00    -35.17309  157.92051     -0.00132 -112.64945     -0.00132 -112.64945    -35.17309  156.78060
 1.93500000e+00    -35.40187  157.02403     -0.00125 -113.53479     -0.00125 -113.53479    -35.40187  155.90639
 1.95000000e+00    -35.64257  156.12663     -0.00118 -114.42028     -0.00118 -114.42028    -35.64257  155.03282
 1.96500000e+00    -35.89603  155.22820     -0.00112 -115.30591     -0.00112 -115.30591    -35.89603  154.15998
 1.98000000e+00    -36.16317  154.32863     -0.00105 -116.19169     -0.00105 -116.19169    -36.16317  153.28799
 1.99500000e+00    -36.44505  153.42780     -0.00098 -117.07762     -0.00098 -117.07762    -36.44505  152.41696
 2.01000000e+00    -36.74285  152.52555     -0.00092 -117.96370     -0.00092 -117.96370    -36.74285  151.54706
 2.02500000e+00    -37.05791  151.62170     -0.00086 -118.84992     -0.00086 -118.84992    -37.05791  150.67845
 2.04000000e+00    -37.39175  150.71605     -0.00079 -119.73630     -0.00079 -119.73630    -37.39175  149.81135
 2.05500000e+00    -37.74614  149.80833     -0.00073 -120.62284     -0.00073 -120.62284    -37.74614  148.94600
 2.07000000e+00    -38.12311  148.89824     -0.00067 -121.50952     -0.00067 -121.50952    -38.12311  148.08272
 2.08500000e+00    -38.52500  147.98540     -0.00061 -122.39636     -0.00061 -122.39636    -38.52500  147.22187
 2.10000000e+00    -38.95460  147.06935     -0.00055 -123.28336     -0.00055 -123.28336    -38.95460  146.36392
 2.11500000e+00    -39.41518  146.14951     -0.00050 -124.17052     -0.00050 -124.17052    -39.41518  145.50945
 2.13000000e+00    -39.91063  145.22515     -0.00044 -125.05784     -0.00044 -125.05784    -39.91063  144.65918
 2.14500000e+00    -40.44570  144.29532     -0.00039 -125.94531     -0.00039 -125.94531    -40.44570  143.81406
 2.16000000e+00    -41.02615  143.35879     -0.00034 -126.83295     -0.00034 -126.83295    -41.02615  142.97531
 2.17500000e+00    -41.65917  142.41391     -0.00030 -127.72075     -0.00030 -127.72075    -41.65917  142.14459
 2.19000000e+00    -42.35381  141.45844     -0.00025 -128.60871     -0.00025 -128.60871    -42.35381  141.32414
 2.20500000e+00    -43.12174  140.48923     -0.00021 -129.49683     -0.00021 -129.49683    -43.12174  140.51710
 2.22000000e+00    -43.97834  139.50173     -0.00017 -130.38513     -0.00017 -130.38513    -43.97834  139.72802
 2.23500000e+00    -44.94444  138.48911     -0.00014 -131.27358     -0.00014 -131.27358    -44.94444  138.96373
 2.25000000e+00    -46.04933  137.44060     -0.00011 -132.16221     -0.00011 -132.16221    -46.04933  138.23499
 2.26500000e+00    -47.33593  136.33822     -0.00008 -133.05100     -0.00008 -133.05100    -47.33593  137.55979
 2.28000000e+00    -48.87093  135.14950     -0.00006 -133.93996     -0.00006 -133.93996    -48.87093  136.97059
 2.29500000e+00    -50.76631  133.80921     -0.00004 -134.82909     -0.00004 -134.82909    -50.76631  136.53261
 2.31000000e+00    -53.23265  132.16416     -0.00002 -135.71839     -0.00002 -135.71839    -53.23265  136.39906
 2.32500000e+00    -56.74437  129.74996     -0.00001 -136.60786     -0.00001 -136.60786    -56.74437  137.03432
 2.34000000e+00    -62.81434  124.19912     -0.00000 -137.49750     -0.00000 -137.49750    -62.81434  140.80588
 2.35500000e+00    -78.38064   27.06835     -0.00000 -138.38732     -0.00000 -138.38732    -78.38064 -123.84298
 2.37000000e+00    -61.97723  -39.95778     -0.00000 -139.27730     -0.00000 -139.27730    -61.97723  -58.59683
 2.38500000e+00    -56.15071  -44.95686     -0.00001 -140.16747     -0.00001 -140.16747    -56.15071  -55.37807
 2.40000000e+00    -52.64853  -47.26763     -0.00002 -141.05780     -0.00002 -141.05780    -52.64853  -54.84798
 2.41500000e+00    -50.13104  -48.87722     -0.00004 -141.94831     -0.00004 -141.94831    -50.13104  -55.01940
 2.43000000e+00    -48.16000  -50.20206     -0.00007 -142.83900     -0.00007 -142.83900    -48.16000  -55.47594
 2.44500000e+00    -46.53701  -51.38342     -0.00010 -143.72986     -0.00010 -143.72986    -46.53701  -56.07631
 2.46000000e+00    -45.15533  -52.48245     -0.00013 -144.62090     -0.00013 -144.62090    -45.15533  -56.75935
 2.47500000e+00    -43.95089  -53.52990     -0.00017 -145.51212     -0.00017 -145.51212    -43.95089  -57.49433
 2.49000000e+00    -42.88222  -54.54295     -0.00022 -146.40351     -0.00022 -146.40351    -42.88222  -58.26407
 2.50500000e+00    -41.92093  -55.53191     -0.00028 -147.29508     -0.00028 -147.29508    -41.92093  -59.05825
 2.52000000e+00    -41.04671  -56.50339     -0.00034 -148.18683     -0.00034 -148.18683    -41.04671  -59.87027
 2.53500000e+00    -40.24455  -57.46177     -0.00041 -149.07875     -0.00041 -149.07875    -40.24455  -60.69574
 2.55000000e+00    -39.50304  -58.41012     -0.00049 -149.97086     -0.00049 -149.97086    -39.50304  -61.53159
 2.56500000e+00    -38.81330  -59.35062     -0.00057 -150.86314     -0.00057 -150.86314    -38.81330  -62.37566
 2.58000000e+00    -38.16827  -60.28488     -0.00066 -151.75561     -0.00066 -151.75561    -38.16827  -63.22634
 2.59500000e+00    -37.56227  -61.21409     -0.00076 -152.64825     -0.00076 -152.64825    -37.56227  -64.08241
 2.61000000e+00    -36.99064  -62.13917     -0.00087 -153.54107     -0.00087 -153.54107    -36.99064  -64.94297
 2.62500000e+00    -36.44951  -63.06085     -0.00098 -154.43407     -0.00098 -154.43407    -36.44951  -65.80729
 2.64000000e+00    -35.93566  -63.97969     -0.00111 -155.32725     -0.00111 -155.32725    -35.93566  -66.67481
 2.65500000e+00    -35.44635  -64.89615     -0.00124 -156.22061     -0.00124 -156.22061    -35.44635  -67.54508
