! S parameter file generated by ana
#   GHz   S   DB   R  50
! frequency       S11_dB    S11_deg       S21_dB    S21_deg       S12_dB    S12_deg       S22_dB    S22_deg
 3.00000000e-03    -94.14444   -3.92226     -0.00000   -0.01230     -0.00000   -0.01230    -94.14444 -176.10234
 6.00000000e-03    -94.08428   -7.80844     -0.00000   -0.02460     -0.00000   -0.02460    -94.08428 -172.24075
 9.00000000e-03    -93.98582  -11.62441     -0.00000   -0.03690     -0.00000   -0.03690    -93.98582 -168.44938
 1.20000000e-02    -93.85163  -15.33972     -0.00000   -0.04919     -0.00000   -0.04919    -93.85163 -164.75867
 1.50000000e-02    -93.68498  -18.92880     -0.00000   -0.06149     -0.00000   -0.06149    -93.68498 -161.19419
 1.80000000e-02    -93.48961  -22.37168     -0.00000   -0.07379     -0.00000   -0.07379    -93.48961 -157.77591
 2.10000000e-02    -93.26952  -25.65415     -0.00000   -0.08609     -0.00000   -0.08609    -93.26952 -154.51803
 2.40000000e-02    -93.02869  -28.76743     -0.00000   -0.09839     -0.00000   -0.09839    -93.02869 -151.42934
 2.70000000e-02    -92.77098  -31.70759     -0.00000   -0.11069     -0.00000   -0.11069    -92.77098 -148.51378
 3.00000000e-02    -92.49996  -34.47469     -0.00000   -0.12298     -0.00000   -0.12298    -92.49996 -145.77128
 3.30000000e-02    -92.21887  -37.07202     -0.00000   -0.13528     -0.00000   -0.13528    -92.21887 -143.19855
 3.60000000e-02    -91.93055  -39.50521     -0.00000   -0.14758     -0.00000   -0.14758    -91.93055 -140.78995
 3.90000000e-02    -91.63745  -41.78157     -0.00000   -0.15988     -0.00000   -0.15988    -91.63745 -138.53819
 4.20000000e-02    -91.34166  -43.90944     -0.00000   -0.17218     -0.00000   -0.17218    -91.34166 -136.43492
 4.50000000e-02    -91.04490  -45.89774     -0.00000   -0.18448     -0.00000   -0.18448    -91.04490 -134.47121
 4.80000000e-02    -90.74862  -47.75558     -0.00000   -0.19678     -0.00000   -0.19678    -90.74862 -132.63798
 5.10000000e-02    -90.45397  -49.49199     -0.00000   -0.20907     -0.00000   -0.20907    -90.45397 -130.92616
 5.40000000e-02    -90.16187  -51.11574     -0.00000   -0.22137     -0.00000   -0.22137    -90.16187 -129.32700
 5.70000000e-02    -89.87305  -52.63522     -0.00000   -0.23367     -0.00000   -0.23367    -89.87305 -127.83213
 6.00000000e-02    -89.58809  -54.05832     -0.00000   -0.24597     -0.00000   -0.24597    -89.58809 -126.43361
 6.30000000e-02    -89.30740  -55.39246     -0.00000   -0.25827     -0.00000   -0.25827    -89.30740 -125.12407
 6.60000000e-02    -89.03129  -56.64451     -0.00000   -0.27057     -0.00000   -0.27057    -89.03129 -123.89663
 6.90000000e-02    -88.76000  -57.82082     -0.00000   -0.28286     -0.00000   -0.28286    -88.76000 -122.74491
 7.20000000e-02    -88.49365  -58.92725     -0.00000   -0.29516     -0.00000   -0.29516    -88.49365 -121.66308
 7.50000000e-02    -88.23233  -59.96918     -0.00000   -0.30746     -0.00000   -0.30746    -88.23233 -120.64574
 7.80000000e-02    -87.97608  -60.95154     -0.00000   -0.31976     -0.00000   -0.31976    -87.97608 -119.68798
 8.10000000e-02    -87.72490  -61.87884     -0.00000   -0.33206     -0.00000   -0.33206    -87.72490 -118.78527
 8.40000000e-02    -87.47874  -62.75522     -0.00000   -0.34436     -0.00000   -0.34436    -87.47874 -117.93349
 8.70000000e-02    -87.23755  -63.58444     -0.00000   -0.35666     -0.00000   -0.35666    -87.23755 -117.12887
 9.00000000e-02    -87.00125  -64.36996     -0.00000   -0.36895     -0.00000   -0.36895    -87.00125 -116.36795
 9.30000000e-02    -86.76975  -65.11493     -0.00000   -0.38125     -0.00000   -0.38125    -86.76975 -115.64757
 9.60000000e-02    -86.54295  -65.82224     -0.00000   -0.39355     -0.00000   -0.39355    -86.54295 -114.96486
 9.90000000e-02    -86.32074  -66.49453     -0.00000   -0.40585     -0.00000   -0.40585    -86.32074 -114.31717
 1.02000000e-01    -86.10300  -67.13422     -0.00000   -0.41815     -0.00000   -0.41815    -86.10300 -113.70207
 1.05000000e-01    -85.88963  -67.74353     -0.00000   -0.43045     -0.00000   -0.43045    -85.88963 -113.11736
 1.08000000e-01    -85.68049  -68.32449     -0.00000   -0.44275     -0.00000   -0.44275    -85.68049 -112.56101
 1.11000000e-01    -85.47548  -68.87896     -0.00000   -0.45504     -0.00000   -0.45504    -85.47548 -112.03113
 1.14000000e-01    -85.27447  -69.40867     -0.00000   -0.46734     -0.00000   -0.46734    -85.27447 -111.52601
 1.17000000e-01    -85.07734  -69.91520     -0.00000   -0.47964     -0.00000   -0.47964    -85.07734 -111.04409
 1.20000000e-01    -84.88399  -70.39999     -0.00000   -0.49194     -0.00000   -0.49194    -84.88399 -110.58389
 1.23000000e-01    -84.69430  -70.86440     -0.00000   -0.50424     -0.00000   -0.50424    -84.69430 -110.14408
 1.26000000e-01    -84.50815  -71.30966     -0.00000   -0.51654     -0.00000   -0.51654    -84.50815 -109.72341
 1.29000000e-01    -84.32545  -71.73692     -0.00000   -0.52883     -0.00000   -0.52883    -84.32545 -109.32075
 1.32000000e-01    -84.14608  -72.14723     -0.00000   -0.54113     -0.00000   -0.54113    -84.14608 -108.93504
 1.35000000e-01    -83.96995  -72.54157     -0.00000   -0.55343     -0.00000   -0.55343    -83.96995 -108.56529
 1.38000000e-01    -83.79696  -72.92087     -0.00000   -0.56573     -0.00000   -0.56573    -83.79696 -108.21059
 1.41000000e-01    -83.62701  -73.28595     -0.00000   -0.57803     -0.00000   -0.57803    -83.62701 -107.87011
 1.44000000e-01    -83.46002  -73.63761     -0.00000   -0.59033     -0.00000   -0.59033    -83.46002 -107.54305
 1.47000000e-01    -83.29588  -73.97657     -0.00000   -0.60263     -0.00000   -0.60263    -83.29588 -107.22868
 1.50000000e-01    -83.13453  -74.30351     -0.00000   -0.61492     -0.00000   -0.61492    -83.13453 -106.92634
 1.53000000e-01    -82.97587  -74.61907     -0.00000   -0.62722     -0.00000   -0.62722    -82.97587 -106.63537
 1.56000000e-01    -82.81983  -74.92384     -0.00000   -0.63952     -0.00000   -0.63952    -82.81983 -106.35520
 1.59000000e-01    -82.66633  -75.21836     -0.00000   -0.65182     -0.00000   -0.65182    -82.66633 -106.08527
 1.62000000e-01    -82.51530  -75.50316     -0.00000   -0.66412     -0.00000   -0.66412    -82.51530 -105.82507
 1.65000000e-01    -82.36666  -75.77872     -0.00000   -0.67642     -0.00000   -0.67642    -82.36666 -105.57411
 1.68000000e-01    -82.22035  -76.04548     -0.00000   -0.68872     -0.00000   -0.68872    -82.22035 -105.33195
 1.71000000e-01    -82.07630  -76.30388     -0.00000   -0.70101     -0.00000   -0.70101    -82.07630 -105.09815
 1.74000000e-01    -81.93446  -76.55431     -0.00000   -0.71331     -0.00000   -0.71331    -81.93446 -104.87232
 1.77000000e-01    -81.79475  -76.79714     -0.00000   -0.72561     -0.00000   -0.72561    -81.79475 -104.65409
 1.80000000e-01    -81.65711  -77.03272     -0.00000   -0.73791     -0.00000   -0.73791    -81.65711 -104.44310
 1.83000000e-01    -81.52150  -77.26138     -0.00000   -0.75021     -0.00000   -0.75021    -81.52150 -104.23903
 1.86000000e-01    -81.38786  -77.48344     -0.00000   -0.76251     -0.00000   -0.76251    -81.38786 -104.04157
 1.89000000e-01    -81.25614  -77.69919     -0.00000   -0.77480     -0.00000   -0.77480    -81.25614 -103.85042
 1.92000000e-01    -81.12627  -77.90889     -0.00000   -0.78710     -0.00000   -0.78710    -81.12627 -103.66531
 1.95000000e-01    -80.99823  -78.11282     -0.00000   -0.79940     -0.00000   -0.79940    -80.99823 -103.48598
 1.98000000e-01    -80.87195  -78.31122     -0.00000   -0.81170     -0.00000   -0.81170    -80.87195 -103.31218
 2.01000000e-01    -80.74740  -78.50432     -0.00000   -0.82400     -0.00000   -0.82400    -80.74740 -103.14368
 2.04000000e-01    -80.62452  -78.69234     -0.00000   -0.83630     -0.00000   -0.83630    -80.62452 -102.98025
 2.07000000e-01    -80.50328  -78.87549     -0.00000   -0.84860     -0.00000   -0.84860    -80.50328 -102.82170
 2.10000000e-01    -80.38364  -79.05397     -0.00000   -0.86089     -0.00000   -0.86089    -80.38364 -102.66782
 2.13000000e-01    -80.26556  -79.22795     -0.00000   -0.87319     -0.00000   -0.87319    -80.26556 -102.51844
 2.16000000e-01    -80.14899  -79.39763     -0.00000   -0.88549     -0.00000   -0.88549    -80.14899 -102.37336
 2.19000000e-01    -80.03391  -79.56316     -0.00000   -0.89779     -0.00000   -0.89779    -80.03391 -102.23242
 2.22000000e-01    -79.92027  -79.72470     -0.00000   -0.91009     -0.00000   -0.91009    -79.92027 -102.09547
 2.25000000e-01    -79.80804  -79.88242     -0.00000   -0.92239     -0.00000   -0.92239    -79.80804 -101.96236
 2.28000000e-01    -79.69720  -80.03644     -0.00000   -0.93469     -0.00000   -0.93469    -79.69720 -101.83293
 2.31000000e-01    -79.58770  -80.18692     -0.00000   -0.94698     -0.00000   -0.94698    -79.58770 -101.70705
 2.34000000e-01    -79.47951  -80.33397     -0.00000   -0.95928     -0.00000   -0.95928    -79.47951 -101.58460
 2.37000000e-01    -79.37262  -80.47772     -0.00000   -0.97158     -0.00000   -0.97158    -79.37262 -101.46544
 2.40000000e-01    -79.26697  -80.61830     -0.00000   -0.98388     -0.00000   -0.98388    -79.26697 -101.34946
 2.43000000e-01    -79.16256  -80.75581     -0.00000   -0.99618     -0.00000   -0.99618    -79.16256 -101.23655
 2.46000000e-01    -79.05935  -80.89036     -0.00000   -1.00848     -0.00000   -1.00848    -79.05935 -101.12659
 2.49000000e-01    -78.95732  -81.02205     -0.00000   -1.02078     -0.00000   -1.02078    -78.95732 -101.01950
 2.52000000e-01    -78.85643  -81.15099     -0.00000   -1.03307     -0.00000   -1.03307    -78.85643 -100.91516
 2.55000000e-01    -78.75667  -81.27726     -0.00000   -1.04537     -0.00000   -1.04537    -78.75667 -100.81349
 2.58000000e-01    -78.65801  -81.40095     -0.00000   -1.05767     -0.00000   -1.05767    -78.65801 -100.71439
 2.61000000e-01    -78.56043  -81.52216     -0.00000   -1.06997     -0.00000   -1.06997    -78.56043 -100.61778
 2.64000000e-01    -78.46390  -81.64096     -0.00000   -1.08227     -0.00000   -1.08227    -78.46390 -100.52358
 2.67000000e-01    -78.36841  -81.75742     -0.00000   -1.09457     -0.00000   -1.09457    -78.36841 -100.43171
 2.70000000e-01    -78.27393  -81.87164     -0.00000   -1.10687     -0.00000   -1.10687    -78.27393 -100.34210
 2.73000000e-01    -78.18044  -81.98366     -0.00000   -1.11916     -0.00000   -1.11916    -78.18044 -100.25466
 2.76000000e-01    -78.08792  -82.09358     -0.00000   -1.13146     -0.00000   -1.13146    -78.08792 -100.16935
 2.79000000e-01    -77.99635  -82.20144     -0.00000   -1.14376     -0.00000   -1.14376    -77.99635 -100.08608
 2.82000000e-01    -77.90572  -82.30733     -0.00000   -1.15606     -0.00000   -1.15606    -77.90572 -100.00479
 2.85000000e-01    -77.81600  -82.41128     -0.00000   -1.16836     -0.00000   -1.16836    -77.81600  -99.92544
 2.88000000e-01    -77.72718  -82.51337     -0.00000   -1.18066     -0.00000   -1.18066    -77.72718  -99.84794
 2.91000000e-01    -77.63924  -82.61365     -0.00000   -1.19296     -0.00000   -1.19296    -77.63924  -99.77226
 2.94000000e-01    -77.55216  -82.71218     -0.00000   -1.20525     -0.00000   -1.20525    -77.55216  -99.69833
 2.97000000e-01    -77.46593  -82.80900     -0.00000   -1.21755     -0.00000   -1.21755    -77.46593  -99.62611
 3.00000000e-01    -77.38053  -82.90416     -0.00000   -1.22985     -0.00000   -1.22985    -77.38053  -99.55554
 3.03000000e-01    -77.29594  -82.99772     -0.00000   -1.24215     -0.00000   -1.24215    -77.29594  -99.48658
 3.06000000e-01    -77.21216  -83.08971     -0.00000   -1.25445     -0.00000   -1.25445    -77.21216  -99.41918
 3.09000000e-01    -77.12916  -83.18019     -0.00000   -1.26675     -0.00000   -1.26675    -77.12916  -99.35330
 3.12000000e-01    -77.04693  -83.26920     -0.00000   -1.27905     -0.00000   -1.27905    -77.04693  -99.28890
 3.15000000e-01    -76.96546  -83.35677     -0.00000   -1.29134     -0.00000   -1.29134    -76.96546  -99.22592
 3.18000000e-01    -76.88473  -83.44294     -0.00000   -1.30364     -0.00000   -1.30364    -76.88473  -99.16434
 3.21000000e-01    -76.80473  -83.52777     -0.00000   -1.31594     -0.00000   -1.31594    -76.80473  -99.10412
 3.24000000e-01    -76.72545  -83.61127     -0.00000   -1.32824     -0.00000   -1.32824    -76.72545  -99.04521
 3.27000000e-01    -76.64688  -83.69349     -0.00000   -1.34054     -0.00000   -1.34054    -76.64688  -98.98759
 3.30000000e-01    -76.56900  -83.77446     -0.00000   -1.35284     -0.00000   -1.35284    -76.56900  -98.93122
 3.33000000e-01    -76.49180  -83.85421     -0.00000   -1.36514     -0.00000   -1.36514    -76.49180  -98.87606
 3.36000000e-01    -76.41527  -83.93278     -0.00000   -1.37743     -0.00000   -1.37743    -76.41527  -98.82209
 3.39000000e-01    -76.33940  -84.01020     -0.00000   -1.38973     -0.00000   -1.38973    -76.33940  -98.76927
 3.42000000e-01    -76.26418  -84.08649     -0.00000   -1.40203     -0.00000   -1.40203    -76.26418  -98.71758
 3.45000000e-01    -76.18959  -84.16168     -0.00000   -1.41433     -0.00000   -1.41433    -76.18959  -98.66698
 3.48000000e-01    -76.11563  -84.23581     -0.00000   -1.42663     -0.00000   -1.42663    -76.11563  -98.61745
 3.51000000e-01    -76.04228  -84.30890     -0.00000   -1.43893     -0.00000   -1.43893    -76.04228  -98.56896
 3.54000000e-01    -75.96955  -84.38097     -0.00000   -1.45123     -0.00000   -1.45123    -75.96955  -98.52148
 3.57000000e-01    -75.89740  -84.45205     -0.00000   -1.46352     -0.00000   -1.46352    -75.89740  -98.47500
 3.60000000e-01    -75.82585  -84.52217     -0.00000   -1.47582     -0.00000   -1.47582    -75.82585  -98.42947
 3.63000000e-01    -75.75487  -84.59135     -0.00000   -1.48812     -0.00000   -1.48812    -75.75487  -98.38490
 3.66000000e-01    -75.68446  -84.65960     -0.00000   -1.50042     -0.00000   -1.50042    -75.68446  -98.34124
 3.69000000e-01    -75.61461  -84.72696     -0.00000   -1.51272     -0.00000   -1.51272    -75.61461  -98.29848
 3.72000000e-01    -75.54531  -84.79344     -0.00000   -1.52502     -0.00000   -1.52502    -75.54531  -98.25659
 3.75000000e-01    -75.47655  -84.85907     -0.00000   -1.53732     -0.00000   -1.53732    -75.47655  -98.21556
 3.78000000e-01    -75.40833  -84.92386     -0.00000   -1.54962     -0.00000   -1.54962    -75.40833  -98.17537
 3.81000000e-01    -75.34063  -84.98784     -0.00000   -1.56191     -0.00000   -1.56191    -75.34063  -98.13599
 3.84000000e-01    -75.27346  -85.05102     -0.00000   -1.57421     -0.00000   -1.57421    -75.27346  -98.09741
 3.87000000e-01    -75.20679  -85.11342     -0.00000   -1.58651     -0.00000   -1.58651    -75.20679  -98.05961
 3.90000000e-01    -75.14062  -85.17505     -0.00000   -1.59881     -0.00000   -1.59881    -75.14062  -98.02257
 3.93000000e-01    -75.07495  -85.23595     -0.00000   -1.61111     -0.00000   -1.61111    -75.07495  -97.98627
 3.96000000e-01    -75.00977  -85.29611     -0.00000   -1.62341     -0.00000   -1.62341    -75.00977  -97.95070
 3.99000000e-01    -74.94507  -85.35557     -0.00000   -1.63571     -0.00000   -1.63571    -74.94507  -97.91584
 4.02000000e-01    -74.88084  -85.41433     -0.00000   -1.64800     -0.00000   -1.64800    -74.88084  -97.88168
 4.05000000e-01    -74.81708  -85.47241     -0.00000   -1.66030     -0.00000   -1.66030    -74.81708  -97.84820
 4.08000000e-01    -74.75378  -85.52982     -0.00000   -1.67260     -0.00000   -1.67260    -74.75378  -97.81538
 4.11000000e-01    -74.69093  -85.58658     -0.00000   -1.68490     -0.00000   -1.68490    -74.69093  -97.78322
 4.14000000e-01    -74.62854  -85.64270     -0.00000   -1.69720     -0.00000   -1.69720    -74.62854  -97.75169
 4.17000000e-01    -74.56658  -85.69821     -0.00000   -1.70950     -0.00000   -1.70950    -74.56658  -97.72079
 4.20000000e-01    -74.50506  -85.75309     -0.00000   -1.72180     -0.00000   -1.72180    -74.50506  -97.69050
 4.23000000e-01    -74.44397  -85.80739     -0.00000   -1.73410     -0.00000   -1.73410    -74.44397  -97.66080
 4.26000000e-01    -74.38330  -85.86109     -0.00000   -1.74639     -0.00000   -1.74639    -74.38330  -97.63170
 4.29000000e-01    -74.32305  -85.91423     -0.00000   -1.75869     -0.00000   -1.75869    -74.32305  -97.60316
 4.32000000e-01    -74.26321  -85.96680     -0.00000   -1.77099     -0.00000   -1.77099    -74.26321  -97.57519
 4.35000000e-01    -74.20378  -86.01882     -0.00000   -1.78329     -0.00000   -1.78329    -74.20378  -97.54776
 4.38000000e-01    -74.14475  -86.07030     -0.00000   -1.79559     -0.00000   -1.79559    -74.14475  -97.52088
 4.41000000e-01    -74.08611  -86.12125     -0.00000   -1.80789     -0.00000   -1.80789    -74.08611  -97.49452
 4.44000000e-01    -74.02787  -86.17169     -0.00000   -1.82019     -0.00000   -1.82019    -74.02787  -97.46868
 4.47000000e-01    -73.97001  -86.22162     -0.00000   -1.83248     -0.00000   -1.83248    -73.97001  -97.44335
 4.50000000e-01    -73.91253  -86.27105     -0.00000   -1.84478     -0.00000   -1.84478    -73.91253  -97.41852
 4.53000000e-01    -73.85543  -86.32000     -0.00000   -1.85708     -0.00000   -1.85708    -73.85543  -97.39417
 4.56000000e-01    -73.79870  -86.36846     -0.00000   -1.86938     -0.00000   -1.86938    -73.79870  -97.37030
 4.59000000e-01    -73.74234  -86.41646     -0.00000   -1.88168     -0.00000   -1.88168    -73.74234  -97.34690
 4.62000000e-01    -73.68633  -86.46400     -0.00000   -1.89398     -0.00000   -1.89398    -73.68633  -97.32396
 4.65000000e-01    -73.63069  -86.51109     -0.00000   -1.90628     -0.00000   -1.90628    -73.63069  -97.30147
 4.68000000e-01    -73.57539  -86.55773     -0.00000   -1.91858     -0.00000   -1.91858    -73.57539  -97.27942
 4.71000000e-01    -73.52045  -86.60394     -0.00000   -1.93087     -0.00000   -1.93087    -73.52045  -97.25781
 4.74000000e-01    -73.46584  -86.64973     -0.00000   -1.94317     -0.00000   -1.94317    -73.46584  -97.23662
 4.77000000e-01    -73.41158  -86.69510     -0.00000   -1.95547     -0.00000   -1.95547    -73.41158  -97.21585
 4.80000000e-01    -73.35765  -86.74005     -0.00000   -1.96777     -0.00000   -1.96777    -73.35765  -97.19549
 4.83000000e-01    -73.30406  -86.78461     -0.00000   -1.98007     -0.00000   -1.98007    -73.30406  -97.17553
 4.86000000e-01    -73.25079  -86.82877     -0.00000   -1.99237     -0.00000   -1.99237    -73.25079  -97.15597
 4.89000000e-01    -73.19785  -86.87254     -0.00000   -2.00467     -0.00000   -2.00467    -73.19785  -97.13680
 4.92000000e-01    -73.14522  -86.91593     -0.00000   -2.01697     -0.00000   -2.01697    -73.14522  -97.11800
 4.95000000e-01    -73.09291  -86.95895     -0.00000   -2.02926     -0.00000   -2.02926    -73.09291  -97.09958
 4.98000000e-01    -73.04091  -87.00159     -0.00000   -2.04156     -0.00000   -2.04156    -73.04091  -97.08153
 5.01000000e-01    -72.98923  -87.04388     -0.00000   -2.05386     -0.00000   -2.05386    -72.98923  -97.06384
 5.04000000e-01    -72.93784  -87.08582     -0.00000   -2.06616     -0.00000   -2.06616    -72.93784  -97.04651
 5.07000000e-01    -72.88676  -87.12740     -0.00000   -2.07846     -0.00000   -2.07846    -72.88676  -97.02952
 5.10000000e-01    -72.83597  -87.16864     -0.00000   -2.09076     -0.00000   -2.09076    -72.83597  -97.01287
 5.13000000e-01    -72.78548  -87.20955     -0.00000   -2.10306     -0.00000   -2.10306    -72.78548  -96.99656
 5.16000000e-01    -72.73528  -87.25013     -0.00000   -2.11536     -0.00000   -2.11536    -72.73528  -96.98059
 5.19000000e-01    -72.68537  -87.29038     -0.00000   -2.12766     -0.00000   -2.12766    -72.68537  -96.96493
 5.22000000e-01    -72.63575  -87.33031     -0.00000   -2.13995     -0.00000   -2.13995    -72.63575  -96.94960
 5.25000000e-01    -72.58640  -87.36993     -0.00000   -2.15225     -0.00000   -2.15225    -72.58640  -96.93458
 5.28000000e-01    -72.53733  -87.40924     -0.00000   -2.16455     -0.00000   -2.16455    -72.53733  -96.91986
 5.31000000e-01    -72.48854  -87.44825     -0.00000   -2.17685     -0.00000   -2.17685    -72.48854  -96.90545
