! S parameter file generated by ana
#   GHz   S   DB   R  50
! frequency       S11_dB    S11_deg       S21_dB    S21_deg       S12_dB    S12_deg       S22_dB    S22_deg
 1.50000000e-02    -72.87372  -13.54646     -0.00000   -0.06129     -0.00000   -0.06129    -72.87372 -166.57612
 3.00000000e-02    -72.21739  -25.74536     -0.00000   -0.12258     -0.00000   -0.12258    -72.21739 -154.49980
 4.50000000e-02    -71.30507  -35.91549     -0.00000   -0.18387     -0.00000   -0.18387    -71.30507 -144.45225
 6.00000000e-02    -70.28328  -44.05238     -0.00000   -0.24516     -0.00000   -0.24516    -70.28328 -136.43794
 7.50000000e-02    -69.24680  -50.47739     -0.00000   -0.30645     -0.00000   -0.30645    -69.24680 -130.13551
 9.00000000e-02    -68.24484  -55.56728     -0.00000   -0.36774     -0.00000   -0.36774    -68.24484 -125.16820
 1.05000000e-01    -67.29843  -59.64479     -0.00000   -0.42903     -0.00000   -0.42903    -67.29843 -121.21327
 1.20000000e-01    -66.41377  -62.95796     -0.00000   -0.49032     -0.00000   -0.49032    -66.41377 -118.02268
 1.35000000e-01    -65.59000  -65.68995     -0.00000   -0.55161     -0.00000   -0.55161    -65.59000 -115.41327
 1.50000000e-01    -64.82324  -67.97476     -0.00000   -0.61290     -0.00000   -0.61290    -64.82324 -113.25104
 1.65000000e-01    -64.10855  -69.91071     -0.00000   -0.67419     -0.00000   -0.67419    -64.10855 -111.43767
 1.80000000e-01    -63.44088  -71.57072     -0.00000   -0.73548     -0.00000   -0.73548    -63.44088 -109.90025
 1.95000000e-01    -62.81548  -73.00949     -0.00000   -0.79677     -0.00000   -0.79677    -62.81548 -108.58405
 2.10000000e-01    -62.22803  -74.26868     -0.00000   -0.85806     -0.00000   -0.85806    -62.22803 -107.44745
 2.25000000e-01    -61.67470  -75.38037     -0.00000   -0.91935     -0.00000   -0.91935    -61.67470 -106.45834
 2.40000000e-01    -61.15210  -76.36963     -0.00000   -0.98064     -0.00000   -0.98064    -61.15210 -105.59166
 2.55000000e-01    -60.65726  -77.25627     -0.00000   -1.04193     -0.00000   -1.04193    -60.65726 -104.82760
 2.70000000e-01    -60.18758  -78.05612     -0.00000   -1.10322     -0.00000   -1.10322    -60.18758 -104.15033
 2.85000000e-01    -59.74079  -78.78198     -0.00000   -1.16452     -0.00000   -1.16452    -59.74079 -103.54705
 3.00000000e-01    -59.31486  -79.44427     -0.00001   -1.22581     -0.00001   -1.22581    -59.31486 -103.00734
 3.15000000e-01    -58.90804  -80.05159     -0.00001   -1.28710     -0.00001   -1.28710    -58.90804 -102.52261
 3.30000000e-01    -58.51874  -80.61105     -0.00001   -1.34839     -0.00001   -1.34839    -58.51874 -102.08573
 3.45000000e-01    -58.14558  -81.12862     -0.00001   -1.40968     -0.00001   -1.40968    -58.14558 -101.69074
 3.60000000e-01    -57.78733  -81.60931     -0.00001   -1.47097     -0.00001   -1.47097    -57.78733 -101.33263
 3.75000000e-01    -57.44287  -82.05738     -0.00001   -1.53226     -0.00001   -1.53226    -57.44287 -101.00715
 3.90000000e-01    -57.11121  -82.47645     -0.00001   -1.59355     -0.00001   -1.59355    -57.11121 -100.71065
 4.05000000e-01    -56.79146  -82.86966     -0.00001   -1.65485     -0.00001   -1.65485    -56.79146 -100.44004
 4.20000000e-01    -56.48282  -83.23967     -0.00001   -1.71614     -0.00001   -1.71614    -56.48282 -100.19261
 4.35000000e-01    -56.18456  -83.58882     -0.00001   -1.77743     -0.00001   -1.77743    -56.18456  -99.96604
 4.50000000e-01    -55.89602  -83.91915     -0.00001   -1.83872     -0.00001   -1.83872    -55.89602  -99.75829
 4.65000000e-01    -55.61659  -84.23242     -0.00001   -1.90001     -0.00001   -1.90001    -55.61659  -99.56760
 4.80000000e-01    -55.34574  -84.53021     -0.00001   -1.96131     -0.00001   -1.96131    -55.34574  -99.39240
 4.95000000e-01    -55.08296  -84.81388     -0.00001   -2.02260     -0.00001   -2.02260    -55.08296  -99.23132
 5.10000000e-01    -54.82779  -85.08466     -0.00001   -2.08389     -0.00001   -2.08389    -54.82779  -99.08312
 5.25000000e-01    -54.57981  -85.34363     -0.00002   -2.14518     -0.00002   -2.14518    -54.57981  -98.94674
 5.40000000e-01    -54.33863  -85.59176     -0.00002   -2.20648     -0.00002   -2.20648    -54.33863  -98.82120
 5.55000000e-01    -54.10390  -85.82990     -0.00002   -2.26777     -0.00002   -2.26777    -54.10390  -98.70564
 5.70000000e-01    -53.87528  -86.05884     -0.00002   -2.32906     -0.00002   -2.32906    -53.87528  -98.59928
 5.85000000e-01    -53.65248  -86.27928     -0.00002   -2.39036     -0.00002   -2.39036    -53.65248  -98.50143
 6.00000000e-01    -53.43520  -86.49183     -0.00002   -2.45165     -0.00002   -2.45165    -53.43520  -98.41147
 6.15000000e-01    -53.22318  -86.69707     -0.00002   -2.51294     -0.00002   -2.51294    -53.22318  -98.32881
 6.30000000e-01    -53.01617  -86.89552     -0.00002   -2.57424     -0.00002   -2.57424    -53.01617  -98.25295
 6.45000000e-01    -52.81396  -87.08764     -0.00002   -2.63553     -0.00002   -2.63553    -52.81396  -98.18342
 6.60000000e-01    -52.61631  -87.27386     -0.00002   -2.69683     -0.00002   -2.69683    -52.61631  -98.11979
 6.75000000e-01    -52.42304  -87.45457     -0.00002   -2.75812     -0.00002   -2.75812    -52.42304  -98.06167
 6.90000000e-01    -52.23396  -87.63012     -0.00003   -2.81941     -0.00003   -2.81941    -52.23396  -98.00871
 7.05000000e-01    -52.04889  -87.80083     -0.00003   -2.88071     -0.00003   -2.88071    -52.04889  -97.96059
 7.20000000e-01    -51.86766  -87.96702     -0.00003   -2.94201     -0.00003   -2.94201    -51.86766  -97.91699
 7.35000000e-01    -51.69013  -88.12894     -0.00003   -3.00330     -0.00003   -3.00330    -51.69013  -97.87766
 7.50000000e-01    -51.51614  -88.28687     -0.00003   -3.06460     -0.00003   -3.06460    -51.51614  -97.84233
 7.65000000e-01    -51.34556  -88.44102     -0.00003   -3.12589     -0.00003   -3.12589    -51.34556  -97.81077
 7.80000000e-01    -51.17826  -88.59161     -0.00003   -3.18719     -0.00003   -3.18719    -51.17826  -97.78277
 7.95000000e-01    -51.01412  -88.73885     -0.00003   -3.24848     -0.00003   -3.24848    -51.01412  -97.75812
 8.10000000e-01    -50.85301  -88.88292     -0.00004   -3.30978     -0.00004   -3.30978    -50.85301  -97.73665
 8.25000000e-01    -50.69484  -89.02398     -0.00004   -3.37108     -0.00004   -3.37108    -50.69484  -97.71817
 8.40000000e-01    -50.53950  -89.16221     -0.00004   -3.43237     -0.00004   -3.43237    -50.53950  -97.70254
 8.55000000e-01    -50.38688  -89.29775     -0.00004   -3.49367     -0.00004   -3.49367    -50.38688  -97.68960
 8.70000000e-01    -50.23690  -89.43073     -0.00004   -3.55497     -0.00004   -3.55497    -50.23690  -97.67921
 8.85000000e-01    -50.08947  -89.56129     -0.00004   -3.61627     -0.00004   -3.61627    -50.08947  -97.67125
 9.00000000e-01    -49.94451  -89.68954     -0.00004   -3.67757     -0.00004   -3.67757    -49.94451  -97.66559
 9.15000000e-01    -49.80192  -89.81561     -0.00005   -3.73886     -0.00005   -3.73886    -49.80192  -97.66212
 9.30000000e-01    -49.66165  -89.93958     -0.00005   -3.80016     -0.00005   -3.80016    -49.66165  -97.66074
 9.45000000e-01    -49.52361  -90.06157     -0.00005   -3.86146     -0.00005   -3.86146    -49.52361  -97.66135
 9.60000000e-01    -49.38773  -90.18167     -0.00005   -3.92276     -0.00005   -3.92276    -49.38773  -97.66385
 9.75000000e-01    -49.25395  -90.29996     -0.00005   -3.98406     -0.00005   -3.98406    -49.25395  -97.66816
 9.90000000e-01    -49.12221  -90.41652     -0.00005   -4.04536     -0.00005   -4.04536    -49.12221  -97.67420
 1.00500000e+00    -48.99245  -90.53143     -0.00005   -4.10666     -0.00005   -4.10666    -48.99245  -97.68189
 1.02000000e+00    -48.86460  -90.64477     -0.00006   -4.16796     -0.00006   -4.16796    -48.86460  -97.69115
 1.03500000e+00    -48.73861  -90.75660     -0.00006   -4.22926     -0.00006   -4.22926    -48.73861  -97.70193
 1.05000000e+00    -48.61444  -90.86698     -0.00006   -4.29056     -0.00006   -4.29056    -48.61444  -97.71415
 1.06500000e+00    -48.49202  -90.97598     -0.00006   -4.35186     -0.00006   -4.35186    -48.49202  -97.72775
 1.08000000e+00    -48.37132  -91.08366     -0.00006   -4.41317     -0.00006   -4.41317    -48.37132  -97.74268
 1.09500000e+00    -48.25228  -91.19006     -0.00006   -4.47447     -0.00006   -4.47447    -48.25228  -97.75888
 1.11000000e+00    -48.13486  -91.29524     -0.00007   -4.53577     -0.00007   -4.53577    -48.13486  -97.77630
 1.12500000e+00    -48.01901  -91.39925     -0.00007   -4.59707     -0.00007   -4.59707    -48.01901  -97.79489
 1.14000000e+00    -47.90470  -91.50214     -0.00007   -4.65838     -0.00007   -4.65838    -47.90470  -97.81461
 1.15500000e+00    -47.79189  -91.60394     -0.00007   -4.71968     -0.00007   -4.71968    -47.79189  -97.83542
 1.17000000e+00    -47.68053  -91.70471     -0.00007   -4.78098     -0.00007   -4.78098    -47.68053  -97.85726
 1.18500000e+00    -47.57059  -91.80447     -0.00008   -4.84229     -0.00008   -4.84229    -47.57059  -97.88010
 1.20000000e+00    -47.46204  -91.90327     -0.00008   -4.90359     -0.00008   -4.90359    -47.46204  -97.90391
 1.21500000e+00    -47.35484  -92.00114     -0.00008   -4.96490     -0.00008   -4.96490    -47.35484  -97.92865
 1.23000000e+00    -47.24896  -92.09812     -0.00008   -5.02620     -0.00008   -5.02620    -47.24896  -97.95429
 1.24500000e+00    -47.14437  -92.19423     -0.00008   -5.08751     -0.00008   -5.08751    -47.14437  -97.98078
 1.26000000e+00    -47.04103  -92.28951     -0.00009   -5.14881     -0.00009   -5.14881    -47.04103  -98.00811
 1.27500000e+00    -46.93892  -92.38400     -0.00009   -5.21012     -0.00009   -5.21012    -46.93892  -98.03624
 1.29000000e+00    -46.83801  -92.47770     -0.00009   -5.27143     -0.00009   -5.27143    -46.83801  -98.06515
 1.30500000e+00    -46.73826  -92.57066     -0.00009   -5.33273     -0.00009   -5.33273    -46.73826  -98.09480
 1.32000000e+00    -46.63967  -92.66290     -0.00009   -5.39404     -0.00009   -5.39404    -46.63967  -98.12518
 1.33500000e+00    -46.54219  -92.75444     -0.00010   -5.45535     -0.00010   -5.45535    -46.54219  -98.15625
 1.35000000e+00    -46.44581  -92.84531     -0.00010   -5.51666     -0.00010   -5.51666    -46.44581  -98.18800
 1.36500000e+00    -46.35050  -92.93552     -0.00010   -5.57797     -0.00010   -5.57797    -46.35050  -98.22041
 1.38000000e+00    -46.25624  -93.02511     -0.00010   -5.63927     -0.00010   -5.63927    -46.25624  -98.25344
 1.39500000e+00    -46.16300  -93.11408     -0.00011   -5.70058     -0.00011   -5.70058    -46.16300  -98.28709
 1.41000000e+00    -46.07076  -93.20246     -0.00011   -5.76189     -0.00011   -5.76189    -46.07076  -98.32133
 1.42500000e+00    -45.97951  -93.29026     -0.00011   -5.82320     -0.00011   -5.82320    -45.97951  -98.35614
 1.44000000e+00    -45.88922  -93.37752     -0.00011   -5.88452     -0.00011   -5.88452    -45.88922  -98.39151
 1.45500000e+00    -45.79987  -93.46423     -0.00011   -5.94583     -0.00011   -5.94583    -45.79987  -98.42742
 1.47000000e+00    -45.71145  -93.55043     -0.00012   -6.00714     -0.00012   -6.00714    -45.71145  -98.46385
 1.48500000e+00    -45.62393  -93.63612     -0.00012   -6.06845     -0.00012   -6.06845    -45.62393  -98.50079
 1.50000000e+00    -45.53729  -93.72131     -0.00012   -6.12976     -0.00012   -6.12976    -45.53729  -98.53821
 1.51500000e+00    -45.45153  -93.80604     -0.00012   -6.19108     -0.00012   -6.19108    -45.45153  -98.57612
 1.53000000e+00    -45.36662  -93.89030     -0.00013   -6.25239     -0.00013   -6.25239    -45.36662  -98.61448
 1.54500000e+00    -45.28254  -93.97411     -0.00013   -6.31370     -0.00013   -6.31370    -45.28254  -98.65330
 1.56000000e+00    -45.19928  -94.05749     -0.00013   -6.37502     -0.00013   -6.37502    -45.19928  -98.69255
 1.57500000e+00    -45.11683  -94.14044     -0.00013   -6.43633     -0.00013   -6.43633    -45.11683  -98.73223
 1.59000000e+00    -45.03517  -94.22298     -0.00014   -6.49765     -0.00014   -6.49765    -45.03517  -98.77232
 1.60500000e+00    -44.95428  -94.30513     -0.00014   -6.55896     -0.00014   -6.55896    -44.95428  -98.81280
 1.62000000e+00    -44.87415  -94.38688     -0.00014   -6.62028     -0.00014   -6.62028    -44.87415  -98.85368
 1.63500000e+00    -44.79477  -94.46826     -0.00014   -6.68160     -0.00014   -6.68160    -44.79477  -98.89494
 1.65000000e+00    -44.71612  -94.54927     -0.00015   -6.74292     -0.00015   -6.74292    -44.71612  -98.93656
 1.66500000e+00    -44.63820  -94.62992     -0.00015   -6.80423     -0.00015   -6.80423    -44.63820  -98.97855
 1.68000000e+00    -44.56098  -94.71022     -0.00015   -6.86555     -0.00015   -6.86555    -44.56098  -99.02088
 1.69500000e+00    -44.48445  -94.79019     -0.00015   -6.92687     -0.00015   -6.92687    -44.48445  -99.06355
 1.71000000e+00    -44.40861  -94.86983     -0.00016   -6.98819     -0.00016   -6.98819    -44.40861  -99.10655
 1.72500000e+00    -44.33343  -94.94914     -0.00016   -7.04951     -0.00016   -7.04951    -44.33343  -99.14988
 1.74000000e+00    -44.25892  -95.02814     -0.00016   -7.11083     -0.00016   -7.11083    -44.25892  -99.19352
 1.75500000e+00    -44.18505  -95.10684     -0.00017   -7.17215     -0.00017   -7.17215    -44.18505  -99.23746
 1.77000000e+00    -44.11183  -95.18524     -0.00017   -7.23347     -0.00017   -7.23347    -44.11183  -99.28171
 1.78500000e+00    -44.03922  -95.26335     -0.00017   -7.29479     -0.00017   -7.29479    -44.03922  -99.32624
 1.80000000e+00    -43.96724  -95.34118     -0.00017   -7.35612     -0.00017   -7.35612    -43.96724  -99.37106
 1.81500000e+00    -43.89586  -95.41873     -0.00018   -7.41744     -0.00018   -7.41744    -43.89586  -99.41615
 1.83000000e+00    -43.82508  -95.49601     -0.00018   -7.47876     -0.00018   -7.47876    -43.82508  -99.46151
 1.84500000e+00    -43.75488  -95.57304     -0.00018   -7.54009     -0.00018   -7.54009    -43.75488  -99.50714
 1.86000000e+00    -43.68526  -95.64980     -0.00019   -7.60141     -0.00019   -7.60141    -43.68526  -99.55302
 1.87500000e+00    -43.61621  -95.72632     -0.00019   -7.66274     -0.00019   -7.66274    -43.61621  -99.59916
 1.89000000e+00    -43.54772  -95.80259     -0.00019   -7.72406     -0.00019   -7.72406    -43.54772  -99.64554
 1.90500000e+00    -43.47978  -95.87863     -0.00019   -7.78539     -0.00019   -7.78539    -43.47978  -99.69215
 1.92000000e+00    -43.41238  -95.95443     -0.00020   -7.84672     -0.00020   -7.84672    -43.41238  -99.73900
 1.93500000e+00    -43.34551  -96.03001     -0.00020   -7.90805     -0.00020   -7.90805    -43.34551  -99.78608
 1.95000000e+00    -43.27917  -96.10536     -0.00020   -7.96937     -0.00020   -7.96937    -43.27917  -99.83338
 1.96500000e+00    -43.21335  -96.18050     -0.00021   -8.03070     -0.00021   -8.03070    -43.21335  -99.88090
 1.98000000e+00    -43.14804  -96.25543     -0.00021   -8.09203     -0.00021   -8.09203    -43.14804  -99.92863
 1.99500000e+00    -43.08323  -96.33015     -0.00021   -8.15336     -0.00021   -8.15336    -43.08323  -99.97657
 2.01000000e+00    -43.01891  -96.40467     -0.00022   -8.21469     -0.00022   -8.21469    -43.01891 -100.02472
 2.02500000e+00    -42.95508  -96.47899     -0.00022   -8.27602     -0.00022   -8.27602    -42.95508 -100.07306
 2.04000000e+00    -42.89174  -96.55312     -0.00022   -8.33736     -0.00022   -8.33736    -42.89174 -100.12159
 2.05500000e+00    -42.82886  -96.62706     -0.00023   -8.39869     -0.00023   -8.39869    -42.82886 -100.17032
 2.07000000e+00    -42.76645  -96.70081     -0.00023   -8.46002     -0.00023   -8.46002    -42.76645 -100.21923
 2.08500000e+00    -42.70451  -96.77438     -0.00023   -8.52136     -0.00023   -8.52136    -42.70451 -100.26833
 2.10000000e+00    -42.64301  -96.84778     -0.00024   -8.58269     -0.00024   -8.58269    -42.64301 -100.31760
 2.11500000e+00    -42.58196  -96.92100     -0.00024   -8.64402     -0.00024   -8.64402    -42.58196 -100.36705
 2.13000000e+00    -42.52136  -96.99405     -0.00024   -8.70536     -0.00024   -8.70536    -42.52136 -100.41667
 2.14500000e+00    -42.46119  -97.06694     -0.00025   -8.76670     -0.00025   -8.76670    -42.46119 -100.46645
 2.16000000e+00    -42.40144  -97.13967     -0.00025   -8.82803     -0.00025   -8.82803    -42.40144 -100.51640
 2.17500000e+00    -42.34212  -97.21223     -0.00025   -8.88937     -0.00025   -8.88937    -42.34212 -100.56651
 2.19000000e+00    -42.28322  -97.28464     -0.00026   -8.95071     -0.00026   -8.95071    -42.28322 -100.61678
 2.20500000e+00    -42.22473  -97.35690     -0.00026   -9.01205     -0.00026   -9.01205    -42.22473 -100.66720
 2.22000000e+00    -42.16665  -97.42901     -0.00026   -9.07339     -0.00026   -9.07339    -42.16665 -100.71777
 2.23500000e+00    -42.10896  -97.50097     -0.00027   -9.13473     -0.00027   -9.13473    -42.10896 -100.76849
 2.25000000e+00    -42.05167  -97.57279     -0.00027   -9.19607     -0.00027   -9.19607    -42.05167 -100.81935
 2.26500000e+00    -41.99478  -97.64446     -0.00027   -9.25741     -0.00027   -9.25741    -41.99478 -100.87036
 2.28000000e+00    -41.93826  -97.71600     -0.00028   -9.31875     -0.00028   -9.31875    -41.93826 -100.92151
 2.29500000e+00    -41.88213  -97.78740     -0.00028   -9.38010     -0.00028   -9.38010    -41.88213 -100.97279
 2.31000000e+00    -41.82637  -97.85868     -0.00029   -9.44144     -0.00029   -9.44144    -41.82637 -101.02420
 2.32500000e+00    -41.77099  -97.92982     -0.00029   -9.50278     -0.00029   -9.50278    -41.77099 -101.07575
 2.34000000e+00    -41.71596  -98.00083     -0.00029   -9.56413     -0.00029   -9.56413    -41.71596 -101.12743
 2.35500000e+00    -41.66130  -98.07172     -0.00030   -9.62548     -0.00030   -9.62548    -41.66130 -101.17923
 2.37000000e+00    -41.60700  -98.14249     -0.00030   -9.68682     -0.00030   -9.68682    -41.60700 -101.23116
 2.38500000e+00    -41.55305  -98.21313     -0.00030   -9.74817     -0.00030   -9.74817    -41.55305 -101.28320
 2.40000000e+00    -41.49945  -98.28366     -0.00031   -9.80952     -0.00031   -9.80952    -41.49945 -101.33537
 2.41500000e+00    -41.44619  -98.35407     -0.00031   -9.87087     -0.00031   -9.87087    -41.44619 -101.38766
 2.43000000e+00    -41.39327  -98.42437     -0.00032   -9.93221     -0.00032   -9.93221    -41.39327 -101.44006
 2.44500000e+00    -41.34069  -98.49456     -0.00032   -9.99356     -0.00032   -9.99356    -41.34069 -101.49257
 2.46000000e+00    -41.28844  -98.56464     -0.00032  -10.05492     -0.00032  -10.05492    -41.28844 -101.54519
 2.47500000e+00    -41.23651  -98.63461     -0.00033  -10.11627     -0.00033  -10.11627    -41.23651 -101.59793
 2.49000000e+00    -41.18491  -98.70447     -0.00033  -10.17762     -0.00033  -10.17762    -41.18491 -101.65077
 2.50500000e+00    -41.13363  -98.77424     -0.00033  -10.23897     -0.00033  -10.23897    -41.13363 -101.70371
 2.52000000e+00    -41.08266  -98.84389     -0.00034  -10.30033     -0.00034  -10.30033    -41.08266 -101.75676
 2.53500000e+00    -41.03201  -98.91345     -0.00034  -10.36168     -0.00034  -10.36168    -41.03201 -101.80991
 2.55000000e+00    -40.98167  -98.98292     -0.00035  -10.42304     -0.00035  -10.42304    -40.98167 -101.86316
 2.56500000e+00    -40.93163  -99.05228     -0.00035  -10.48439     -0.00035  -10.48439    -40.93163 -101.91650
 2.58000000e+00    -40.88189  -99.12155     -0.00035  -10.54575     -0.00035  -10.54575    -40.88189 -101.96995
 2.59500000e+00    -40.83245  -99.19073     -0.00036  -10.60711     -0.00036  -10.60711    -40.83245 -102.02348
 2.61000000e+00    -40.78331  -99.25982     -0.00036  -10.66847     -0.00036  -10.66847    -40.78331 -102.07712
 2.62500000e+00    -40.73445  -99.32881     -0.00037  -10.72983     -0.00037  -10.72983    -40.73445 -102.13084
 2.64000000e+00    -40.68589  -99.39772     -0.00037  -10.79119     -0.00037  -10.79119    -40.68589 -102.18465
 2.65500000e+00    -40.63761  -99.46654     -0.00038  -10.85255     -0.00038  -10.85255    -40.63761 -102.23855
