! S parameter file generated by ana
#   GHz   S   DB   R  50
! frequency       S11_dB    S11_deg       S21_dB    S21_deg       S12_dB    S12_deg       S22_dB    S22_deg
 3.00000000e-03    -85.09541 -109.41638     -0.00000   -0.17455     -0.00000   -0.17455    -85.09541  -70.93272
 6.00000000e-03    -79.44387 -100.24910     -0.00000   -0.34910     -0.00000   -0.34910    -79.44387  -80.44910
 9.00000000e-03    -75.99406  -97.16029     -0.00000   -0.52365     -0.00000   -0.52365    -75.99406  -83.88701
 1.20000000e-02    -73.52089  -95.68543     -0.00000   -0.69820     -0.00000   -0.69820    -73.52089  -85.71097
 1.50000000e-02    -71.59471  -94.86616     -0.00000   -0.87275     -0.00000   -0.87275    -71.59471  -86.87934
 1.80000000e-02    -70.01775  -94.37679     -0.00000   -1.04730     -0.00000   -1.04730    -70.01775  -87.71781
 2.10000000e-02    -68.68298  -94.07656     -0.00000   -1.22185     -0.00000   -1.22185    -68.68298  -88.36714
 2.40000000e-02    -67.52598  -93.89476     -0.00000   -1.39640     -0.00000   -1.39640    -67.52598  -88.89804
 2.70000000e-02    -66.50501  -93.79201     -0.00000   -1.57095     -0.00000   -1.57095    -66.50501  -89.34989
 3.00000000e-02    -65.59150  -93.74465     -0.00000   -1.74550     -0.00000   -1.74550    -65.59150  -89.74635
 3.30000000e-02    -64.76500  -93.73759     -0.00000   -1.92005     -0.00000   -1.92005    -64.76500  -90.10251
 3.60000000e-02    -64.01041  -93.76077     -0.00000   -2.09460     -0.00000   -2.09460    -64.01041  -90.42843
 3.90000000e-02    -63.31623  -93.80722     -0.00000   -2.26915     -0.00000   -2.26915    -63.31623  -90.73108
 4.20000000e-02    -62.67353  -93.87196     -0.00000   -2.44370     -0.00000   -2.44370    -62.67353  -91.01545
 4.50000000e-02    -62.07522  -93.95133     -0.00000   -2.61825     -0.00000   -2.61825    -62.07522  -91.28517
 4.80000000e-02    -61.51558  -94.04259     -0.00000   -2.79280     -0.00000   -2.79280    -61.51558  -91.54301
 5.10000000e-02    -60.98992  -94.14365     -0.00000   -2.96735     -0.00000   -2.96735    -60.98992  -91.79106
 5.40000000e-02    -60.49438  -94.25287     -0.00000   -3.14190     -0.00000   -3.14190    -60.49438  -92.03094
 5.70000000e-02    -60.02570  -94.36897     -0.00000   -3.31646     -0.00000   -3.31646    -60.02570  -92.26394
 6.00000000e-02    -59.58113  -94.49091     -0.00000   -3.49101     -0.00000   -3.49101    -59.58113  -92.49110
 6.30000000e-02    -59.15832  -94.61786     -0.00001   -3.66556     -0.00001   -3.66556    -59.15832  -92.71326
 6.60000000e-02    -58.75526  -94.74913     -0.00001   -3.84011     -0.00001   -3.84011    -58.75526  -92.93108
 6.90000000e-02    -58.37019  -94.88417     -0.00001   -4.01466     -0.00001   -4.01466    -58.37019  -93.14515
 7.20000000e-02    -58.00158  -95.02250     -0.00001   -4.18921     -0.00001   -4.18921    -58.00158  -93.35592
 7.50000000e-02    -57.64810  -95.16373     -0.00001   -4.36376     -0.00001   -4.36376    -57.64810  -93.56380
 7.80000000e-02    -57.30857  -95.30752     -0.00001   -4.53832     -0.00001   -4.53832    -57.30857  -93.76911
 8.10000000e-02    -56.98192  -95.45359     -0.00001   -4.71287     -0.00001   -4.71287    -56.98192  -93.97214
 8.40000000e-02    -56.66724  -95.60170     -0.00001   -4.88742     -0.00001   -4.88742    -56.66724  -94.17314
 8.70000000e-02    -56.36367  -95.75163     -0.00001   -5.06197     -0.00001   -5.06197    -56.36367  -94.37232
 9.00000000e-02    -56.07048  -95.90320     -0.00001   -5.23653     -0.00001   -5.23653    -56.07048  -94.56985
 9.30000000e-02    -55.78699  -96.05625     -0.00001   -5.41108     -0.00001   -5.41108    -55.78699  -94.76591
 9.60000000e-02    -55.51257  -96.21065     -0.00001   -5.58563     -0.00001   -5.58563    -55.51257  -94.96062
 9.90000000e-02    -55.24668  -96.36627     -0.00001   -5.76018     -0.00001   -5.76018    -55.24668  -95.15410
 1.02000000e-01    -54.98881  -96.52300     -0.00001   -5.93474     -0.00001   -5.93474    -54.98881  -95.34648
 1.05000000e-01    -54.73850  -96.68075     -0.00001   -6.10929     -0.00001   -6.10929    -54.73850  -95.53783
 1.08000000e-01    -54.49532  -96.83943     -0.00002   -6.28384     -0.00002   -6.28384    -54.49532  -95.72825
 1.11000000e-01    -54.25888  -96.99898     -0.00002   -6.45840     -0.00002   -6.45840    -54.25888  -95.91782
 1.14000000e-01    -54.02883  -97.15931     -0.00002   -6.63295     -0.00002   -6.63295    -54.02883  -96.10659
 1.17000000e-01    -53.80484  -97.32037     -0.00002   -6.80751     -0.00002   -6.80751    -53.80484  -96.29464
 1.20000000e-01    -53.58661  -97.48211     -0.00002   -6.98206     -0.00002   -6.98206    -53.58661  -96.48201
 1.23000000e-01    -53.37384  -97.64448     -0.00002   -7.15662     -0.00002   -7.15662    -53.37384  -96.66876
 1.26000000e-01    -53.16628  -97.80742     -0.00002   -7.33117     -0.00002   -7.33117    -53.16628  -96.85492
 1.29000000e-01    -52.96369  -97.97091     -0.00002   -7.50573     -0.00002   -7.50573    -52.96369  -97.04055
 1.32000000e-01    -52.76584  -98.13489     -0.00002   -7.68028     -0.00002   -7.68028    -52.76584  -97.22567
 1.35000000e-01    -52.57252  -98.29935     -0.00002   -7.85484     -0.00002   -7.85484    -52.57252  -97.41032
 1.38000000e-01    -52.38353  -98.46425     -0.00003   -8.02939     -0.00003   -8.02939    -52.38353  -97.59454
 1.41000000e-01    -52.19869  -98.62956     -0.00003   -8.20395     -0.00003   -8.20395    -52.19869  -97.77834
 1.44000000e-01    -52.01783  -98.79526     -0.00003   -8.37851     -0.00003   -8.37851    -52.01783  -97.96176
 1.47000000e-01    -51.84077  -98.96131     -0.00003   -8.55306     -0.00003   -8.55306    -51.84077  -98.14481
 1.50000000e-01    -51.66738  -99.12771     -0.00003   -8.72762     -0.00003   -8.72762    -51.66738  -98.32753
 1.53000000e-01    -51.49750  -99.29443     -0.00003   -8.90218     -0.00003   -8.90218    -51.49750  -98.50993
 1.56000000e-01    -51.33100  -99.46145     -0.00003   -9.07674     -0.00003   -9.07674    -51.33100  -98.69202
 1.59000000e-01    -51.16776  -99.62876     -0.00003   -9.25130     -0.00003   -9.25130    -51.16776  -98.87383
 1.62000000e-01    -51.00766  -99.79633     -0.00003   -9.42585     -0.00003   -9.42585    -51.00766  -99.05538
 1.65000000e-01    -50.85057  -99.96416     -0.00004   -9.60041     -0.00004   -9.60041    -50.85057  -99.23667
 1.68000000e-01    -50.69640 -100.13223     -0.00004   -9.77497     -0.00004   -9.77497    -50.69640  -99.41771
 1.71000000e-01    -50.54504 -100.30053     -0.00004   -9.94953     -0.00004   -9.94953    -50.54504  -99.59853
 1.74000000e-01    -50.39640 -100.46904     -0.00004  -10.12409     -0.00004  -10.12409    -50.39640  -99.77914
 1.77000000e-01    -50.25038 -100.63776     -0.00004  -10.29865     -0.00004  -10.29865    -50.25038  -99.95954
 1.80000000e-01    -50.10690 -100.80668     -0.00004  -10.47321     -0.00004  -10.47321    -50.10690 -100.13975
 1.83000000e-01    -49.96587 -100.97578     -0.00004  -10.64777     -0.00004  -10.64777    -49.96587 -100.31977
 1.86000000e-01    -49.82723 -101.14506     -0.00005  -10.82233     -0.00005  -10.82233    -49.82723 -100.49961
 1.89000000e-01    -49.69088 -101.31450     -0.00005  -10.99690     -0.00005  -10.99690    -49.69088 -100.67929
 1.92000000e-01    -49.55677 -101.48411     -0.00005  -11.17146     -0.00005  -11.17146    -49.55677 -100.85881
 1.95000000e-01    -49.42482 -101.65387     -0.00005  -11.34602     -0.00005  -11.34602    -49.42482 -101.03817
 1.98000000e-01    -49.29496 -101.82377     -0.00005  -11.52058     -0.00005  -11.52058    -49.29496 -101.21739
 2.01000000e-01    -49.16715 -101.99382     -0.00005  -11.69515     -0.00005  -11.69515    -49.16715 -101.39647
 2.04000000e-01    -49.04131 -102.16400     -0.00005  -11.86971     -0.00005  -11.86971    -49.04131 -101.57542
 2.07000000e-01    -48.91739 -102.33431     -0.00006  -12.04427     -0.00006  -12.04427    -48.91739 -101.75424
 2.10000000e-01    -48.79534 -102.50473     -0.00006  -12.21884     -0.00006  -12.21884    -48.79534 -101.93294
 2.13000000e-01    -48.67511 -102.67528     -0.00006  -12.39340     -0.00006  -12.39340    -48.67511 -102.11153
 2.16000000e-01    -48.55664 -102.84594     -0.00006  -12.56797     -0.00006  -12.56797    -48.55664 -102.29000
 2.19000000e-01    -48.43989 -103.01670     -0.00006  -12.74253     -0.00006  -12.74253    -48.43989 -102.46836
 2.22000000e-01    -48.32482 -103.18757     -0.00006  -12.91710     -0.00006  -12.91710    -48.32482 -102.64663
 2.25000000e-01    -48.21137 -103.35854     -0.00007  -13.09167     -0.00007  -13.09167    -48.21137 -102.82479
 2.28000000e-01    -48.09951 -103.52961     -0.00007  -13.26623     -0.00007  -13.26623    -48.09951 -103.00286
 2.31000000e-01    -47.98920 -103.70076     -0.00007  -13.44080     -0.00007  -13.44080    -47.98920 -103.18084
 2.34000000e-01    -47.88039 -103.87201     -0.00007  -13.61537     -0.00007  -13.61537    -47.88039 -103.35873
 2.37000000e-01    -47.77306 -104.04334     -0.00007  -13.78994     -0.00007  -13.78994    -47.77306 -103.53654
 2.40000000e-01    -47.66716 -104.21475     -0.00007  -13.96451     -0.00007  -13.96451    -47.66716 -103.71427
 2.43000000e-01    -47.56266 -104.38624     -0.00008  -14.13908     -0.00008  -14.13908    -47.56266 -103.89192
 2.46000000e-01    -47.45953 -104.55780     -0.00008  -14.31365     -0.00008  -14.31365    -47.45953 -104.06949
 2.49000000e-01    -47.35773 -104.72944     -0.00008  -14.48822     -0.00008  -14.48822    -47.35773 -104.24699
 2.52000000e-01    -47.25724 -104.90115     -0.00008  -14.66279     -0.00008  -14.66279    -47.25724 -104.42442
 2.55000000e-01    -47.15802 -105.07293     -0.00008  -14.83736     -0.00008  -14.83736    -47.15802 -104.60179
 2.58000000e-01    -47.06005 -105.24477     -0.00009  -15.01193     -0.00009  -15.01193    -47.06005 -104.77909
 2.61000000e-01    -46.96330 -105.41668     -0.00009  -15.18650     -0.00009  -15.18650    -46.96330 -104.95633
 2.64000000e-01    -46.86774 -105.58864     -0.00009  -15.36108     -0.00009  -15.36108    -46.86774 -105.13351
 2.67000000e-01    -46.77334 -105.76067     -0.00009  -15.53565     -0.00009  -15.53565    -46.77334 -105.31063
 2.70000000e-01    -46.68008 -105.93276     -0.00009  -15.71022     -0.00009  -15.71022    -46.68008 -105.48769
 2.73000000e-01    -46.58794 -106.10490     -0.00010  -15.88480     -0.00010  -15.88480    -46.58794 -105.66470
 2.76000000e-01    -46.49689 -106.27709     -0.00010  -16.05937     -0.00010  -16.05937    -46.49689 -105.84166
 2.79000000e-01    -46.40691 -106.44934     -0.00010  -16.23395     -0.00010  -16.23395    -46.40691 -106.01856
 2.82000000e-01    -46.31798 -106.62163     -0.00010  -16.40852     -0.00010  -16.40852    -46.31798 -106.19542
 2.85000000e-01    -46.23008 -106.79398     -0.00010  -16.58310     -0.00010  -16.58310    -46.23008 -106.37222
 2.88000000e-01    -46.14318 -106.96637     -0.00011  -16.75768     -0.00011  -16.75768    -46.14318 -106.54899
 2.91000000e-01    -46.05727 -107.13881     -0.00011  -16.93226     -0.00011  -16.93226    -46.05727 -106.72570
 2.94000000e-01    -45.97232 -107.31129     -0.00011  -17.10683     -0.00011  -17.10683    -45.97232 -106.90238
 2.97000000e-01    -45.88833 -107.48382     -0.00011  -17.28141     -0.00011  -17.28141    -45.88833 -107.07901
 3.00000000e-01    -45.80526 -107.65639     -0.00011  -17.45599     -0.00011  -17.45599    -45.80526 -107.25560
 3.03000000e-01    -45.72311 -107.82900     -0.00012  -17.63057     -0.00012  -17.63057    -45.72311 -107.43215
 3.06000000e-01    -45.64185 -108.00165     -0.00012  -17.80515     -0.00012  -17.80515    -45.64185 -107.60866
 3.09000000e-01    -45.56148 -108.17433     -0.00012  -17.97974     -0.00012  -17.97974    -45.56148 -107.78514
 3.12000000e-01    -45.48196 -108.34706     -0.00012  -18.15432     -0.00012  -18.15432    -45.48196 -107.96158
 3.15000000e-01    -45.40329 -108.51982     -0.00013  -18.32890     -0.00013  -18.32890    -45.40329 -108.13798
 3.18000000e-01    -45.32546 -108.69261     -0.00013  -18.50349     -0.00013  -18.50349    -45.32546 -108.31436
 3.21000000e-01    -45.24844 -108.86545     -0.00013  -18.67807     -0.00013  -18.67807    -45.24844 -108.49069
 3.24000000e-01    -45.17223 -109.03831     -0.00013  -18.85265     -0.00013  -18.85265    -45.17223 -108.66700
 3.27000000e-01    -45.09680 -109.21121     -0.00013  -19.02724     -0.00013  -19.02724    -45.09680 -108.84327
 3.30000000e-01    -45.02215 -109.38414     -0.00014  -19.20183     -0.00014  -19.20183    -45.02215 -109.01952
 3.33000000e-01    -44.94827 -109.55709     -0.00014  -19.37641     -0.00014  -19.37641    -44.94827 -109.19573
 3.36000000e-01    -44.87513 -109.73008     -0.00014  -19.55100     -0.00014  -19.55100    -44.87513 -109.37191
 3.39000000e-01    -44.80273 -109.90310     -0.00014  -19.72559     -0.00014  -19.72559    -44.80273 -109.54807
 3.42000000e-01    -44.73105 -110.07615     -0.00015  -19.90018     -0.00015  -19.90018    -44.73105 -109.72420
 3.45000000e-01    -44.66009 -110.24923     -0.00015  -20.07477     -0.00015  -20.07477    -44.66009 -109.90031
 3.48000000e-01    -44.58983 -110.42233     -0.00015  -20.24936     -0.00015  -20.24936    -44.58983 -110.07638
 3.51000000e-01    -44.52026 -110.59546     -0.00015  -20.42395     -0.00015  -20.42395    -44.52026 -110.25244
 3.54000000e-01    -44.45137 -110.76861     -0.00016  -20.59854     -0.00016  -20.59854    -44.45137 -110.42846
 3.57000000e-01    -44.38315 -110.94179     -0.00016  -20.77313     -0.00016  -20.77313    -44.38315 -110.60447
 3.60000000e-01    -44.31559 -111.11500     -0.00016  -20.94772     -0.00016  -20.94772    -44.31559 -110.78045
 3.63000000e-01    -44.24867 -111.28823     -0.00016  -21.12232     -0.00016  -21.12232    -44.24867 -110.95641
 3.66000000e-01    -44.18240 -111.46148     -0.00017  -21.29691     -0.00017  -21.29691    -44.18240 -111.13235
 3.69000000e-01    -44.11675 -111.63475     -0.00017  -21.47151     -0.00017  -21.47151    -44.11675 -111.30826
 3.72000000e-01    -44.05172 -111.80805     -0.00017  -21.64610     -0.00017  -21.64610    -44.05172 -111.48416
 3.75000000e-01    -43.98731 -111.98137     -0.00017  -21.82070     -0.00017  -21.82070    -43.98731 -111.66003
 3.78000000e-01    -43.92349 -112.15471     -0.00018  -21.99530     -0.00018  -21.99530    -43.92349 -111.83588
 3.81000000e-01    -43.86027 -112.32808     -0.00018  -22.16990     -0.00018  -22.16990    -43.86027 -112.01172
 3.84000000e-01    -43.79763 -112.50146     -0.00018  -22.34450     -0.00018  -22.34450    -43.79763 -112.18753
 3.87000000e-01    -43.73557 -112.67486     -0.00018  -22.51910     -0.00018  -22.51910    -43.73557 -112.36333
 3.90000000e-01    -43.67407 -112.84828     -0.00019  -22.69370     -0.00019  -22.69370    -43.67407 -112.53911
 3.93000000e-01    -43.61314 -113.02172     -0.00019  -22.86830     -0.00019  -22.86830    -43.61314 -112.71487
 3.96000000e-01    -43.55275 -113.19519     -0.00019  -23.04290     -0.00019  -23.04290    -43.55275 -112.89062
 3.99000000e-01    -43.49292 -113.36866     -0.00019  -23.21750     -0.00019  -23.21750    -43.49292 -113.06634
 4.02000000e-01    -43.43361 -113.54216     -0.00020  -23.39211     -0.00020  -23.39211    -43.43361 -113.24205
 4.05000000e-01    -43.37484 -113.71568     -0.00020  -23.56671     -0.00020  -23.56671    -43.37484 -113.41775
 4.08000000e-01    -43.31659 -113.88921     -0.00020  -23.74132     -0.00020  -23.74132    -43.31659 -113.59343
 4.11000000e-01    -43.25886 -114.06276     -0.00021  -23.91592     -0.00021  -23.91592    -43.25886 -113.76909
 4.14000000e-01    -43.20164 -114.23632     -0.00021  -24.09053     -0.00021  -24.09053    -43.20164 -113.94474
 4.17000000e-01    -43.14492 -114.40990     -0.00021  -24.26514     -0.00021  -24.26514    -43.14492 -114.12038
 4.20000000e-01    -43.08869 -114.58350     -0.00021  -24.43975     -0.00021  -24.43975    -43.08869 -114.29600
 4.23000000e-01    -43.03296 -114.75711     -0.00022  -24.61436     -0.00022  -24.61436    -43.03296 -114.47160
 4.26000000e-01    -42.97771 -114.93074     -0.00022  -24.78897     -0.00022  -24.78897    -42.97771 -114.64719
 4.29000000e-01    -42.92293 -115.10439     -0.00022  -24.96358     -0.00022  -24.96358    -42.92293 -114.82277
 4.32000000e-01    -42.86863 -115.27805     -0.00022  -25.13819     -0.00022  -25.13819    -42.86863 -114.99834
 4.35000000e-01    -42.81479 -115.45172     -0.00023  -25.31281     -0.00023  -25.31281    -42.81479 -115.17389
 4.38000000e-01    -42.76142 -115.62541     -0.00023  -25.48742     -0.00023  -25.48742    -42.76142 -115.34944
 4.41000000e-01    -42.70849 -115.79911     -0.00023  -25.66204     -0.00023  -25.66204    -42.70849 -115.52496
 4.44000000e-01    -42.65602 -115.97282     -0.00024  -25.83665     -0.00024  -25.83665    -42.65602 -115.70048
 4.47000000e-01    -42.60399 -116.14655     -0.00024  -26.01127     -0.00024  -26.01127    -42.60399 -115.87599
 4.50000000e-01    -42.55240 -116.32029     -0.00024  -26.18589     -0.00024  -26.18589    -42.55240 -116.05148
 4.53000000e-01    -42.50124 -116.49405     -0.00024  -26.36051     -0.00024  -26.36051    -42.50124 -116.22696
 4.56000000e-01    -42.45051 -116.66782     -0.00025  -26.53513     -0.00025  -26.53513    -42.45051 -116.40244
 4.59000000e-01    -42.40021 -116.84160     -0.00025  -26.70975     -0.00025  -26.70975    -42.40021 -116.57790
 4.62000000e-01    -42.35032 -117.01539     -0.00025  -26.88437     -0.00025  -26.88437    -42.35032 -116.75335
 4.65000000e-01    -42.30085 -117.18919     -0.00026  -27.05899     -0.00026  -27.05899    -42.30085 -116.92879
 4.68000000e-01    -42.25178 -117.36301     -0.00026  -27.23361     -0.00026  -27.23361    -42.25178 -117.10422
 4.71000000e-01    -42.20313 -117.53684     -0.00026  -27.40824     -0.00026  -27.40824    -42.20313 -117.27964
 4.74000000e-01    -42.15487 -117.71068     -0.00026  -27.58286     -0.00026  -27.58286    -42.15487 -117.45505
 4.77000000e-01    -42.10701 -117.88453     -0.00027  -27.75749     -0.00027  -27.75749    -42.10701 -117.63045
 4.80000000e-01    -42.05953 -118.05839     -0.00027  -27.93212     -0.00027  -27.93212    -42.05953 -117.80584
 4.83000000e-01    -42.01245 -118.23227     -0.00027  -28.10675     -0.00027  -28.10675    -42.01245 -117.98123
 4.86000000e-01    -41.96575 -118.40615     -0.00028  -28.28138     -0.00028  -28.28138    -41.96575 -118.15660
 4.89000000e-01    -41.91943 -118.58005     -0.00028  -28.45601     -0.00028  -28.45601    -41.91943 -118.33197
 4.92000000e-01    -41.87349 -118.75395     -0.00028  -28.63064     -0.00028  -28.63064    -41.87349 -118.50732
 4.95000000e-01    -41.82791 -118.92787     -0.00029  -28.80527     -0.00029  -28.80527    -41.82791 -118.68267
 4.98000000e-01    -41.78271 -119.10180     -0.00029  -28.97990     -0.00029  -28.97990    -41.78271 -118.85801
 5.01000000e-01    -41.73786 -119.27573     -0.00029  -29.15454     -0.00029  -29.15454    -41.73786 -119.03335
 5.04000000e-01    -41.69338 -119.44968     -0.00029  -29.32918     -0.00029  -29.32918    -41.69338 -119.20867
 5.07000000e-01    -41.64926 -119.62364     -0.00030  -29.50381     -0.00030  -29.50381    -41.64926 -119.38399
 5.10000000e-01    -41.60549 -119.79760     -0.00030  -29.67845     -0.00030  -29.67845    -41.60549 -119.55930
 5.13000000e-01    -41.56206 -119.97158     -0.00030  -29.85309     -0.00030  -29.85309    -41.56206 -119.73460
 5.16000000e-01    -41.51899 -120.14556     -0.00031  -30.02773     -0.00031  -30.02773    -41.51899 -119.90989
 5.19000000e-01    -41.47626 -120.31956     -0.00031  -30.20237     -0.00031  -30.20237    -41.47626 -120.08518
 5.22000000e-01    -41.43386 -120.49356     -0.00031  -30.37701     -0.00031  -30.37701    -41.43386 -120.26046
 5.25000000e-01    -41.39181 -120.66757     -0.00032  -30.55166     -0.00032  -30.55166    -41.39181 -120.43574
 5.28000000e-01    -41.35008 -120.84159     -0.00032  -30.72630     -0.00032  -30.72630    -41.35008 -120.61101
 5.31000000e-01    -41.30869 -121.01562     -0.00032  -30.90094     -0.00032  -30.90094    -41.30869 -120.78627
