! S parameter file generated by ana
#   GHz   S   DB   R  50
 1.50000000e-02    -35.08943 -179.03493    -89.98306   61.01085    -90.11072 -119.05689     -0.00148   -0.40535
               -89.98306   61.01085    -34.79478 -179.05393     -0.00157   -0.40464    -90.10368 -119.04698
               -90.11072 -119.05689     -0.00157   -0.40464    -34.78114   -1.75233    -90.20698   60.97743
                -0.00148   -0.40535    -90.10368 -119.04698    -90.20698   60.97743    -35.07496   -1.77251
 3.00000000e-02    -35.08147 -178.07157    -84.79177   74.22641    -84.91305 -106.06345     -0.00148   -0.81071
               -84.79177   74.22641    -34.78703 -178.10951     -0.00157   -0.80928    -84.90565 -106.05250
               -84.91305 -106.06345     -0.00157   -0.80928    -34.77342   -3.50302    -84.99762   73.72063
                -0.00148   -0.81071    -84.90565 -106.05250    -84.99762   73.72063    -35.06703   -3.54333
 4.50000000e-02    -35.06823 -177.11162    -81.44230   79.00090    -81.56215 -101.48783     -0.00148   -1.21607
               -81.44230   79.00090    -34.77413 -177.16837     -0.00157   -1.21392    -81.55466 -101.47451
               -81.56215 -101.48783     -0.00157   -1.21392    -34.76058   -5.25045    -81.64408   78.08907
                -0.00148   -1.21607    -81.55466 -101.47451    -81.64408   78.08907    -35.05386   -5.31076
 6.00000000e-02    -35.04977 -176.15676    -79.00521   81.35024    -79.12460  -99.32794     -0.00149   -1.62142
               -79.00521   81.35024    -34.75614 -176.23213     -0.00158   -1.61857    -79.11707  -99.31172
               -79.12460  -99.32794     -0.00158   -1.61857    -34.74267   -6.99302    -79.20564   80.05909
                -0.00149   -1.62142    -79.11707  -99.31172    -79.20564   80.05909    -35.03547   -7.07314
 7.50000000e-02    -35.02614 -175.20862    -77.09554   82.69266    -77.21479  -98.17071     -0.00150   -2.02678
               -77.09554   82.69266    -34.73312 -175.30237     -0.00159   -2.02321    -77.20724  -98.15134
               -77.21479  -98.17071     -0.00159   -2.02321    -34.71974   -8.72915    -77.29550   81.03424
                -0.00150   -2.02678    -77.20724  -98.15134    -77.29550   81.03424    -35.01195   -8.82884
 9.00000000e-02    -34.99743 -174.26880    -75.52715   83.52368    -75.64639  -97.52263     -0.00150   -2.43214
               -75.52715   83.52368    -34.70514 -174.38061     -0.00160   -2.42786    -75.63883  -97.49998
               -75.64639  -97.52263     -0.00160   -2.42786    -34.69188  -10.45733    -75.72703   81.50432
                -0.00150   -2.43214    -75.63883  -97.49998    -75.72703   81.50432    -34.98337  -10.57629
 1.05000000e-01    -34.96374 -173.33882    -74.19707   84.06008    -74.31638  -97.16782     -0.00152   -2.83750
               -74.19707   84.06008    -34.67231 -173.46835     -0.00161   -2.83250    -74.30881  -97.14183
               -74.31638  -97.16782     -0.00161   -2.83250    -34.65918  -12.17608    -74.39709   81.68351
                -0.00152   -2.83750    -74.30881  -97.14183    -74.39709   81.68351    -34.94983  -12.31396
 1.20000000e-01    -34.92519 -172.42016    -73.04261   84.41145    -73.16206  -96.99718     -0.00153   -3.24287
               -73.04261   84.41145    -34.63473 -172.56699     -0.00162   -3.23715    -73.15447  -96.96780
               -73.16206  -96.99718     -0.00162   -3.23715    -34.62175  -13.88400    -73.24293   81.68005
                -0.00153   -3.24287    -73.15447  -96.96780    -73.24293   81.68005    -34.91145  -14.04040
 1.35000000e-01    -34.88191 -171.51419    -72.02288   84.63907    -72.14250  -96.94968     -0.00154   -3.64823
               -72.02288   84.63907    -34.59252 -171.67788     -0.00164   -3.64180    -72.13490  -96.91688
               -72.14250  -96.94968     -0.00164   -3.64180    -34.57972  -15.57974    -72.22360   81.55447
                -0.00154   -3.64823    -72.13490  -96.91688    -72.22360   81.55447    -34.86835  -15.75423
 1.50000000e-01    -34.83403 -170.62223    -71.10972   84.77987    -71.22954  -96.98856     -0.00156   -4.05360
               -71.10972   84.77987    -34.54583 -170.80229     -0.00165   -4.04646    -71.22194  -96.95233
               -71.22954  -96.98856     -0.00165   -4.04646    -34.53321  -17.26206    -71.31093   81.34325
                -0.00156   -4.05360    -71.22194  -96.95233    -71.31093   81.34325    -34.82067  -17.45414
 1.65000000e-01    -34.78171 -169.74550    -70.28296   84.85742    -70.40301  -97.09035     -0.00158   -4.45897
               -70.28296   84.85742    -34.49479 -169.94140     -0.00167   -4.45111    -70.39539  -97.05068
               -70.40301  -97.09035     -0.00167   -4.45111    -34.48237  -18.92977    -70.48474   81.06965
                -0.00158   -4.45897    -70.39539  -97.05068    -70.48474   81.06965    -34.76857  -19.13893
 1.80000000e-01    -34.72511 -168.88512    -69.52761   84.88747    -69.64793  -97.23937     -0.00159   -4.86435
               -69.52761   84.88747    -34.43956 -169.09630     -0.00169   -4.85577    -69.64029  -97.19626
               -69.64793  -97.23937     -0.00169   -4.85577    -34.42736  -20.58178    -69.73004   80.74922
                -0.00159   -4.86435    -69.64029  -97.19626    -69.73004   80.74922    -34.71221  -20.80748
 1.95000000e-01    -34.66441 -168.04212    -68.83231   84.88092    -68.95291  -97.42476     -0.00162   -5.26973
               -68.83231   84.88092    -34.38031 -168.26801     -0.00171   -5.26044    -68.94526  -97.37820
               -68.95291  -97.42476     -0.00171   -5.26044    -34.36833  -22.21710    -69.03545   80.39276
                -0.00162   -5.26973    -68.94526  -97.37820    -69.03545   80.39276    -34.65175  -22.45877
 2.10000000e-01    -34.59977 -167.21744    -68.18816   84.84559    -68.30907  -97.63874     -0.00164   -5.67511
               -68.18816   84.84559    -34.31720 -167.45742     -0.00174   -5.66511    -68.30141  -97.58873
               -68.30907  -97.63874     -0.00174   -5.66511    -34.30547  -23.83482    -68.39209   80.00798
                -0.00164   -5.67511    -68.30141  -97.58873    -68.39209   80.00798    -34.58738  -24.09186
 2.25000000e-01    -34.53140 -166.41189    -67.58813   84.78720    -67.70937  -97.87561     -0.00166   -6.08050
               -67.58813   84.78720    -34.25042 -166.66536     -0.00176   -6.06978    -67.70169  -97.82216
               -67.70937  -97.87561     -0.00176   -6.06978    -34.23893  -25.43411    -67.79290   79.60053
                -0.00166   -6.08050    -67.70169  -97.82216    -67.79290   79.60053    -34.51928  -25.70592
 2.40000000e-01    -34.45946 -165.62623    -67.02652   84.71006    -67.14811  -98.13108     -0.00169   -6.48589
               -67.02652   84.71006    -34.18013 -165.89256     -0.00179   -6.47445    -67.14042  -98.07419
               -67.14811  -98.13108     -0.00179   -6.47445    -34.16890  -27.01427    -67.23220   79.17467
                -0.00169   -6.48589    -67.14042  -98.07419    -67.23220   79.17467    -34.44762  -27.30023
 2.55000000e-01    -34.38415 -164.86108    -66.49868   84.61745    -66.62065  -98.40187     -0.00172   -6.89129
               -66.49868   84.61745    -34.10653 -165.13964     -0.00182   -6.87913    -66.61294  -98.34156
               -66.62065  -98.40187     -0.00182   -6.87913    -34.09556  -28.57466    -66.70533   78.73364
                -0.00172   -6.89129    -66.61294  -98.34156    -66.70533   78.73364    -34.37260  -28.87416
 2.70000000e-01    -34.30567 -164.11699    -66.00073   84.51192    -66.12310  -98.68545     -0.00174   -7.29669
               -66.00073   84.51192    -34.02979 -164.40714     -0.00185   -7.28382    -66.11538  -98.62172
               -66.12310  -98.68545     -0.00185   -7.28382    -34.01910  -30.11474    -66.20842   78.27999
                -0.00174   -7.29669    -66.11538  -98.62172    -66.20842   78.27999    -34.29441  -30.42715
 2.85000000e-01    -34.22419 -163.39440    -65.52945   84.39551    -65.65224  -98.97980     -0.00178   -7.70210
               -65.52945   84.39551    -33.95010 -163.69552     -0.00188   -7.68851    -65.64450  -98.91266
               -65.65224  -98.97980     -0.00188   -7.68851    -33.93968  -31.63406    -65.73824   77.81571
                -0.00178   -7.70210    -65.64450  -98.91266    -65.73824   77.81571    -34.21323  -31.95876
 3.00000000e-01    -34.13991 -162.69368    -65.08210   84.26982    -65.20533  -99.28330     -0.00181   -8.10751
               -65.08210   84.26982    -33.86764 -163.00514     -0.00191   -8.09320    -65.19756  -99.21276
               -65.20533  -99.28330     -0.00191   -8.09320    -33.85750  -33.13225    -65.29204   77.34241
                -0.00181   -8.10751    -65.19756  -99.21276    -65.29204   77.34241    -34.12926  -33.46863
 3.15000000e-01    -34.05301 -162.01512    -64.65632   84.13616    -64.78002  -99.59465     -0.00184   -8.51293
               -64.65632   84.13616    -33.78258 -162.33629     -0.00195   -8.49790    -64.77223  -99.52072
               -64.78002  -99.59465     -0.00195   -8.49790    -33.77273  -34.60903    -64.86749   76.86137
                -0.00184   -8.51293    -64.77223  -99.52072    -64.86749   76.86137    -34.04267  -34.95647
 3.30000000e-01    -33.96368 -161.35889    -64.25012   83.99560    -64.37429  -99.91279     -0.00188   -8.91836
               -64.25012   83.99560    -33.69511 -161.68918     -0.00199   -8.90261    -64.36649  -99.83548
               -64.37429  -99.91279     -0.00199   -8.90261    -33.68555  -36.06418    -64.46256   76.37367
                -0.00188   -8.91836    -64.36649  -99.83548    -64.46256   76.37367    -33.95365  -36.42210
 3.45000000e-01    -33.87209 -160.72514    -63.86173   83.84902    -63.98641 -100.23683     -0.00192   -9.32379
               -63.86173   83.84902    -33.60540 -161.06395     -0.00202   -9.30733    -63.97859 -100.15616
               -63.98641 -100.23683     -0.00202   -9.30733    -33.59612  -37.49756    -64.07551   75.88017
                -0.00192   -9.32379    -63.97859 -100.15616    -64.07551   75.88017    -33.86237  -37.86537
 3.60000000e-01    -33.77842 -160.11391    -63.48964   83.69716    -63.61485 -100.56604     -0.00195   -9.72923
               -63.48964   83.69716    -33.51362 -160.46067     -0.00207   -9.71205    -63.60700 -100.48202
               -63.61485 -100.56604     -0.00207   -9.71205    -33.50463  -38.90911    -63.70482   75.38162
                -0.00195   -9.72923    -63.60700 -100.48202    -63.70482   75.38162    -33.76902  -39.28625
 3.75000000e-01    -33.68284 -159.52519    -63.13251   83.54063    -63.25827 -100.89980     -0.00200  -10.13468
               -63.13251   83.54063    -33.41993 -159.87935     -0.00211  -10.11677    -63.25039 -100.81244
               -63.25827 -100.89980     -0.00211  -10.11677    -33.41122  -40.29880    -63.34915   74.87863
                -0.00200  -10.13468    -63.25039 -100.81244    -63.34915   74.87863    -33.67375  -40.68472
 3.90000000e-01    -33.58551 -158.95892    -62.78916   83.37996    -62.91549 -101.23759     -0.00204  -10.54013
               -62.78916   83.37996    -33.32448 -159.31993     -0.00215  -10.52151    -62.90758 -101.14691
               -62.91549 -101.23759     -0.00215  -10.52151    -33.31607  -41.66669    -63.00732   74.37172
                -0.00204  -10.54013    -62.90758 -101.14691    -63.00732   74.37172    -33.57673  -42.06086
 4.05000000e-01    -33.48659 -158.41497    -62.45854   83.21559    -62.58545 -101.57896     -0.00208  -10.94560
               -62.45854   83.21559    -33.22745 -158.78232     -0.00220  -10.92625    -62.57753 -101.48498
               -62.58545 -101.57896     -0.00220  -10.92625    -33.21931  -43.01288    -62.67828   73.86133
                -0.00208  -10.94560    -62.57753 -101.48498    -62.67828   73.86133    -33.47811  -43.41479
 4.20000000e-01    -33.38623 -157.89318    -62.13972   83.04789    -62.26724 -101.92354     -0.00213  -11.35107
               -62.13972   83.04789    -33.12896 -158.26637     -0.00225  -11.33100    -62.25929 -101.82627
               -62.26724 -101.92354     -0.00225  -11.33100    -33.12111  -44.33750    -62.36109   73.34784
                -0.00213  -11.35107    -62.25929 -101.82627    -62.36109   73.34784    -33.37805  -44.74667
 4.35000000e-01    -33.28457 -157.39332    -61.83186   82.87720    -61.96002 -102.27099     -0.00218  -11.75655
               -61.83186   82.87720    -33.02917 -157.77189     -0.00230  -11.73576    -61.95204 -102.17045
               -61.96002 -102.27099     -0.00230  -11.73576    -33.02159  -45.64076    -62.05493   72.83159
                -0.00218  -11.75655    -61.95204 -102.17045    -62.05493   72.83159    -33.27670  -46.05672
 4.50000000e-01    -33.18176 -156.91515    -61.53422   82.70380    -61.66303 -102.62103     -0.00222  -12.16204
               -61.53422   82.70380    -32.92820 -157.29863     -0.00235  -12.14052    -61.65502 -102.51724
               -61.66303 -102.62103     -0.00235  -12.14052    -32.92090  -46.92288    -61.75904   72.31286
                -0.00222  -12.16204    -61.65502 -102.51724    -61.75904   72.31286    -33.17418  -47.34518
 4.65000000e-01    -33.07791 -156.45838    -61.24612   82.52793    -61.37559 -102.97341     -0.00228  -12.56753
               -61.24612   82.52793    -32.82619 -156.84635     -0.00240  -12.54530    -61.36755 -102.86639
               -61.37559 -102.97341     -0.00240  -12.54530    -32.81916  -48.18412    -61.47274   71.79189
                -0.00228  -12.56753    -61.36755 -102.86639    -61.47274   71.79189    -33.07063  -48.61234
 4.80000000e-01    -32.97317 -156.02269    -60.96694   82.34981    -61.09711 -103.32791     -0.00233  -12.97304
               -60.96694   82.34981    -32.72325 -156.41474     -0.00246  -12.95008    -61.08904 -103.21769
               -61.09711 -103.32791     -0.00246  -12.95008    -32.71649  -49.42476    -61.19543   71.26891
                -0.00233  -12.97304    -61.08904 -103.21769    -61.19543   71.26891    -32.96617  -49.85851
 4.95000000e-01    -32.86764 -155.60775    -60.69613   82.16962    -60.82701 -103.68435     -0.00238  -13.37856
               -60.69613   82.16962    -32.61951 -156.00349     -0.00251  -13.35487    -60.81891 -103.57094
               -60.82701 -103.68435     -0.00251  -13.35487    -32.61301  -50.64514    -60.92655   70.74411
                -0.00238  -13.37856    -60.81891 -103.57094    -60.92655   70.74411    -32.86092  -51.08402
 5.10000000e-01    -32.76143 -155.21317    -60.43318   81.98753    -60.56480 -104.04255     -0.00244  -13.78409
               -60.43318   81.98753    -32.51508 -155.61225     -0.00257  -13.75968    -60.55667 -103.92598
               -60.56480 -104.04255     -0.00257  -13.75968    -32.50884  -51.84559    -60.66559   70.21766
                -0.00244  -13.78409    -60.55667 -103.92598    -60.66559   70.21766    -32.75499  -52.28925
 5.25000000e-01    -32.65466 -154.83860    -60.17764   81.80369    -60.31001 -104.40237     -0.00250  -14.18963
               -60.17764   81.80369    -32.41005 -155.24066     -0.00263  -14.16449    -60.30184 -104.28265
               -60.31001 -104.40237     -0.00263  -14.16449    -32.40406  -53.02646    -60.41209   69.68971
                -0.00250  -14.18963    -60.30184 -104.28265    -60.41209   69.68971    -32.64849  -53.47456
 5.40000000e-01    -32.54742 -154.48362    -59.92908   81.61823    -60.06222 -104.76368     -0.00256  -14.59517
               -59.92908   81.61823    -32.30453 -154.88835     -0.00269  -14.56931    -60.05402 -104.64084
               -60.06222 -104.76368     -0.00269  -14.56931    -32.29879  -54.18813    -60.16563   69.16039
                -0.00256  -14.59517    -60.05402 -104.64084    -60.16563   69.16039    -32.54151  -54.64036
 5.55000000e-01    -32.43980 -154.14783    -59.68711   81.43125    -59.82105 -105.12635     -0.00262  -15.00073
               -59.68711   81.43125    -32.19861 -154.55492     -0.00276  -14.97414    -59.81281 -105.00041
               -59.82105 -105.12635     -0.00276  -14.97414    -32.19310  -55.33099    -59.92582   68.62982
                -0.00262  -15.00073    -59.81281 -105.00041    -59.92582   68.62982    -32.43415  -55.78705
 5.70000000e-01    -32.33188 -153.83081    -59.45138   81.24287    -59.58613 -105.49028     -0.00268  -15.40630
               -59.45138   81.24287    -32.09237 -154.23997     -0.00282  -15.37899    -59.57786 -105.36127
               -59.58613 -105.49028     -0.00282  -15.37899    -32.08710  -56.45543    -59.69230   68.09811
                -0.00268  -15.40630    -59.57786 -105.36127    -59.69230   68.09811    -32.32649  -56.91504
 5.85000000e-01    -32.22377 -153.53213    -59.22155   81.05317    -59.35714 -105.85538     -0.00275  -15.81189
               -59.22155   81.05317    -31.98589 -153.94311     -0.00289  -15.78384    -59.34883 -105.72333
               -59.35714 -105.85538     -0.00289  -15.78384    -31.98085  -57.56186    -59.46474   67.56536
                -0.00275  -15.81189    -59.34883 -105.72333    -59.46474   67.56536    -32.21862  -58.02476
 6.00000000e-01    -32.11551 -153.25136    -58.99732   80.86224    -59.13376 -106.22157     -0.00281  -16.21748
               -58.99732   80.86224    -31.87925 -153.66391     -0.00296  -16.18870    -59.12542 -106.08648
               -59.13376 -106.22157     -0.00296  -16.18870    -31.87443  -58.65069    -59.24284   67.03165
                -0.00281  -16.21748    -59.12542 -106.08648    -59.24284   67.03165    -32.11061  -59.11664
 6.15000000e-01    -32.00720 -152.98807    -58.77842   80.67014    -58.91573 -106.58875     -0.00288  -16.62309
               -58.77842   80.67014    -31.77252 -153.40196     -0.00303  -16.59358    -58.90735 -106.45068
               -58.91573 -106.58875     -0.00303  -16.59358    -31.76792  -59.72233    -59.02632   66.49707
                -0.00288  -16.62309    -58.90735 -106.45068    -59.02632   66.49707    -32.00252  -60.19110
 6.30000000e-01    -31.89889 -152.74183    -58.56457   80.47695    -58.70278 -106.95688     -0.00295  -17.02871
               -58.56457   80.47695    -31.66577 -153.15684     -0.00310  -16.99847    -58.69436 -106.81583
               -58.70278 -106.95688     -0.00310  -16.99847    -31.66138  -60.77720    -58.81491   65.96168
                -0.00295  -17.02871    -58.69436 -106.81583    -58.81491   65.96168    -31.89444  -61.24858
 6.45000000e-01    -31.79064 -152.51220    -58.35554   80.28273    -58.49466 -107.32587     -0.00302  -17.43434
               -58.35554   80.28273    -31.55905 -152.92814     -0.00318  -17.40337    -58.48620 -107.18188
               -58.49466 -107.32587     -0.00318  -17.40337    -31.55487  -61.81571    -58.60838   65.42555
                -0.00302  -17.43434    -58.48620 -107.18188    -58.60838   65.42555    -31.78641  -62.28951
 6.60000000e-01    -31.68251 -152.29875    -58.15110   80.08753    -58.29116 -107.69568     -0.00309  -17.83999
               -58.15110   80.08753    -31.45243 -152.71543     -0.00325  -17.80828    -58.28266 -107.54878
               -58.29116 -107.69568     -0.00325  -17.80828    -31.44845  -62.83828    -58.40649   64.88874
                -0.00309  -17.83999    -58.28266 -107.54878    -58.40649   64.88874    -31.67850  -63.31432
 6.75000000e-01    -31.57456 -152.10105    -57.95103   79.89139    -58.09205 -108.06626     -0.00317  -18.24564
               -57.95103   79.89139    -31.34595 -152.51831     -0.00333  -18.21320    -58.08351 -107.91647
               -58.09205 -108.06626     -0.00333  -18.21320    -31.34217  -63.84532    -58.20904   64.35130
                -0.00317  -18.24564    -58.08351 -107.91647    -58.20904   64.35130    -31.57075  -64.32344
 6.90000000e-01    -31.46682 -151.91868    -57.75516   79.69436    -57.89714 -108.43755     -0.00325  -18.65132
               -57.75516   79.69436    -31.23967 -152.33636     -0.00341  -18.61814    -57.88856 -108.28490
